COMMAND=D:\Xilinx\Vivado\2023.1\bin\vivado.bat -mode batch -source C:\Users\user\Documents\RF_COMM_MULTILANE_P9\scripts\build_p9_z7010_candidate.tcl -tclargs C:\Users\user\Documents\RF_COMM_MULTILANE_P9
STARTED_UTC=2026-07-27T04:33:21+00:00
FINISHED_UTC=2026-07-27T04:40:12+00:00
RETURN_CODE=0
STDOUT_BEGIN

****** Vivado v2023.1 (64-bit)
  **** SW Build 3865809 on Sun May  7 15:05:29 MDT 2023
  **** IP Build 3864474 on Sun May  7 20:36:21 MDT 2023
  **** SharedData Build 3865790 on Sun May 07 13:33:03 MDT 2023
    ** Copyright 1986-2022 Xilinx, Inc. All Rights Reserved.
    ** Copyright 2022-2023 Advanced Micro Devices, Inc. All Rights Reserved.

Sourcing tcl script 'D:/Xilinx/Vivado/2023.1/scripts/Vivado_init.tcl'
vivado-mcp server ready on port 9999
source {C:\Users\user\Documents\RF_COMM_MULTILANE_P9\scripts\build_p9_z7010_candidate.tcl}
# set root_dir [file normalize [lindex $argv 0]]
# set build_dir [file normalize "$root_dir/build/p9_z7010_candidate"]
# set out_dir [file normalize "$root_dir/evidence/generated/vivado/p9_z7010_candidate"]
# file mkdir $build_dir
# file mkdir $out_dir
# create_project p9_z7010_candidate "$build_dir/project" -part xc7z010clg400-1 -force
create_project: Time (s): cpu = 00:00:04 ; elapsed = 00:00:05 . Memory (MB): peak = 1390.316 ; gain = 160.949
# set rtl_sources [list \
#   "$root_dir/rtl/generated/tfdu_safety_config.svh" \
#   "$root_dir/rtl/generated/ir_register_map_defs.svh" \
#   "$root_dir/rtl/ir_seq_math_pkg.sv" \
#   "$root_dir/rtl/ir_health_weighted_scheduler.sv" \
#   "$root_dir/rtl/ir_selective_repeat_tx.sv" \
#   "$root_dir/rtl/ir_selective_repeat_rx.sv" \
#   "$root_dir/rtl/ir_ack_aggregator.sv" \
#   "$root_dir/rtl/ir_data_plane_top.sv" \
#   "$root_dir/rtl/ir_tfdu_exact_duty_accountant.sv" \
#   "$root_dir/rtl/ir_tfdu_physical_module_safety.sv" \
#   "$root_dir/rtl/tfdu_lane_phy.sv" \
#   "$root_dir/rtl/ir_4ppm_codec.sv" \
#   "$root_dir/rtl/p9_rate_4ppm_rx.sv" \
#   "$root_dir/rtl/p9_4ppm_frame_tx.sv" \
#   "$root_dir/rtl/p9_4ppm_frame_rx.sv" \
#   "$root_dir/rtl/p9_optical_transport_core.sv" \
#   "$root_dir/rtl/p6_axi_lite_bridge.sv" \
#   "$root_dir/rtl/p9_axi_dma_peripheral.sv" \
#   "$root_dir/rtl/p9_axi_dma_peripheral_bd.v" \
# ]
# add_files -fileset sources_1 $rtl_sources
# set_property include_dirs [list "$root_dir/rtl"] [get_filesets sources_1]
# read_xdc "$root_dir/constraints/active/PORT1.generated.xdc"
# create_bd_design p9_ps_system
Wrote  : <C:\Users\user\Documents\RF_COMM_MULTILANE_P9\build\p9_z7010_candidate\project\p9_z7010_candidate.srcs\sources_1\bd\p9_ps_system\p9_ps_system.bd> 
# set ps [create_bd_cell -type ip -vlnv xilinx.com:ip:processing_system7:5.5 processing_system7_0]
# set_property -dict [list \
#   CONFIG.PCW_USE_M_AXI_GP0 {1} \
#   CONFIG.PCW_USE_S_AXI_HP0 {1} \
#   CONFIG.PCW_S_AXI_HP0_DATA_WIDTH {64} \
#   CONFIG.PCW_USE_FABRIC_INTERRUPT {1} \
#   CONFIG.PCW_IRQ_F2P_INTR {1} \
#   CONFIG.PCW_EN_CLK0_PORT {1} \
#   CONFIG.PCW_EN_CLK1_PORT {1} \
#   CONFIG.PCW_EN_CLK2_PORT {1} \
#   CONFIG.PCW_FPGA0_PERIPHERAL_FREQMHZ {64.000000} \
#   CONFIG.PCW_FPGA1_PERIPHERAL_FREQMHZ {100.000000} \
#   CONFIG.PCW_FPGA2_PERIPHERAL_FREQMHZ {50.000000} \
# ] $ps
# apply_bd_automation -rule xilinx.com:bd_rule:processing_system7 \
#   -config {make_external "FIXED_IO, DDR" apply_board_preset "0" Master "Disable" Slave "Disable"} $ps
WARNING: [Boardtcl 53-1] No current board_part set.
# set_property -dict [list \
#   CONFIG.PCW_CRYSTAL_PERIPHERAL_FREQMHZ {33.333333} \
#   CONFIG.PCW_APU_PERIPHERAL_FREQMHZ {666.666666} \
#   CONFIG.PCW_PRESET_BANK0_VOLTAGE {LVCMOS 3.3V} \
#   CONFIG.PCW_PRESET_BANK1_VOLTAGE {LVCMOS 1.8V} \
#   CONFIG.PCW_UIPARAM_DDR_PARTNO {MT41J128M16 HA-125} \
#   CONFIG.PCW_UIPARAM_DDR_DRAM_WIDTH {16 Bits} \
#   CONFIG.PCW_UIPARAM_DDR_DEVICE_CAPACITY {2048 MBits} \
#   CONFIG.PCW_UIPARAM_DDR_BUS_WIDTH {32 Bit} \
#   CONFIG.PCW_UIPARAM_DDR_FREQ_MHZ {533.333333} \
#   CONFIG.PCW_UIPARAM_DDR_T_FAW {40.0} \
#   CONFIG.PCW_UIPARAM_DDR_ECC {Disabled} \
#   CONFIG.PCW_UIPARAM_DDR_TRAIN_READ_GATE {1} \
#   CONFIG.PCW_UIPARAM_DDR_TRAIN_DATA_EYE {1} \
#   CONFIG.PCW_UIPARAM_DDR_TRAIN_WRITE_LEVEL {1} \
# ] $ps
# set dma [create_bd_cell -type ip -vlnv xilinx.com:ip:axi_dma:7.1 axi_dma_0]
# set_property -dict [list \
#   CONFIG.c_include_sg {1} \
#   CONFIG.c_sg_length_width {26} \
#   CONFIG.c_addr_width {32} \
#   CONFIG.c_include_mm2s {1} \
#   CONFIG.c_include_s2mm {1} \
#   CONFIG.c_include_mm2s_dre {1} \
#   CONFIG.c_include_s2mm_dre {1} \
#   CONFIG.c_m_axi_mm2s_data_width {32} \
#   CONFIG.c_m_axis_mm2s_tdata_width {32} \
#   CONFIG.c_m_axi_s2mm_data_width {32} \
#   CONFIG.c_s_axis_s2mm_tdata_width {32} \
#   CONFIG.c_mm2s_burst_size {16} \
#   CONFIG.c_s2mm_burst_size {16} \
# ] $dma
# update_compile_order -fileset sources_1
INFO: [IP_Flow 19-5107] Inferred bus interface 's_axi_aclk' of definition 'xilinx.com:signal:clock:1.0' (from X_INTERFACE_INFO parameter from HDL file).
INFO: [IP_Flow 19-5107] Inferred bus interface 's_axi_aclk' of definition 'xilinx.com:signal:clock:1.0' (from 'X_INTERFACE_INFO' attribute).
INFO: [IP_Flow 19-5107] Inferred bus interface 's_axi_aresetn' of definition 'xilinx.com:signal:reset:1.0' (from X_INTERFACE_INFO parameter from HDL file).
INFO: [IP_Flow 19-5107] Inferred bus interface 's_axi_aresetn' of definition 'xilinx.com:signal:reset:1.0' (from 'X_INTERFACE_INFO' attribute).
INFO: [IP_Flow 19-5107] Inferred bus interface 's_axis' of definition 'xilinx.com:interface:axis:1.0' (from X_INTERFACE_INFO parameter from HDL file).
INFO: [IP_Flow 19-5107] Inferred bus interface 's_axis' of definition 'xilinx.com:interface:axis:1.0' (from 'X_INTERFACE_INFO' attribute).
INFO: [IP_Flow 19-5107] Inferred bus interface 'm_axis' of definition 'xilinx.com:interface:axis:1.0' (from X_INTERFACE_INFO parameter from HDL file).
INFO: [IP_Flow 19-5107] Inferred bus interface 'm_axis' of definition 'xilinx.com:interface:axis:1.0' (from 'X_INTERFACE_INFO' attribute).
INFO: [IP_Flow 19-5107] Inferred bus interface 's_axi' of definition 'xilinx.com:interface:aximm:1.0' (from Xilinx Repository).
INFO: [IP_Flow 19-4728] Bus Interface 's_axi_aclk': Added interface parameter 'ASSOCIATED_BUSIF' with value 's_axi'.
INFO: [IP_Flow 19-4728] Bus Interface 's_axi_aclk': Added interface parameter 'ASSOCIATED_RESET' with value 's_axi_aresetn'.
INFO: [IP_Flow 19-4728] Bus Interface 's_axi_aclk': Added interface parameter 'FREQ_HZ' with value '64000000'.
INFO: [IP_Flow 19-4728] Bus Interface 's_axi_aresetn': Added interface parameter 'POLARITY' with value 'ACTIVE_LOW'.
INFO: [IP_Flow 19-7067] Note that bus interface 's_axi_aclk' has a fixed FREQ_HZ of '64000000'. This value will be respected whenever this IP is instantiated in IP Integrator.
# set p9 [create_bd_cell -type module -reference p9_axi_dma_peripheral_bd p9_peripheral_0]
# set rst64 [create_bd_cell -type ip -vlnv xilinx.com:ip:proc_sys_reset:5.0 rst_protocol_64]
# set rst100 [create_bd_cell -type ip -vlnv xilinx.com:ip:proc_sys_reset:5.0 rst_dma_100]
# set rst50 [create_bd_cell -type ip -vlnv xilinx.com:ip:proc_sys_reset:5.0 rst_axil_50]
# connect_bd_net [get_bd_pins processing_system7_0/FCLK_CLK0] [get_bd_pins rst_protocol_64/slowest_sync_clk]
# connect_bd_net [get_bd_pins processing_system7_0/FCLK_CLK1] [get_bd_pins rst_dma_100/slowest_sync_clk]
# connect_bd_net [get_bd_pins processing_system7_0/FCLK_CLK2] [get_bd_pins rst_axil_50/slowest_sync_clk]
# connect_bd_net [get_bd_pins processing_system7_0/FCLK_RESET0_N] [get_bd_pins rst_protocol_64/ext_reset_in]
# connect_bd_net [get_bd_pins processing_system7_0/FCLK_RESET0_N] [get_bd_pins rst_dma_100/ext_reset_in]
# connect_bd_net [get_bd_pins processing_system7_0/FCLK_RESET0_N] [get_bd_pins rst_axil_50/ext_reset_in]
# set gp_xbar [create_bd_cell -type ip -vlnv xilinx.com:ip:axi_interconnect:2.1 gp0_interconnect]
# set_property -dict [list CONFIG.NUM_SI {1} CONFIG.NUM_MI {2}] $gp_xbar
# set axil_cc [create_bd_cell -type ip -vlnv xilinx.com:ip:axi_clock_converter:2.1 p9_axil_clock_converter]
# set_property CONFIG.PROTOCOL {AXI4LITE} $axil_cc
# connect_bd_intf_net [get_bd_intf_pins processing_system7_0/M_AXI_GP0] [get_bd_intf_pins gp0_interconnect/S00_AXI]
# connect_bd_intf_net [get_bd_intf_pins gp0_interconnect/M00_AXI] [get_bd_intf_pins axi_dma_0/S_AXI_LITE]
# connect_bd_intf_net [get_bd_intf_pins gp0_interconnect/M01_AXI] [get_bd_intf_pins p9_axil_clock_converter/S_AXI]
# connect_bd_intf_net [get_bd_intf_pins p9_axil_clock_converter/M_AXI] [get_bd_intf_pins p9_peripheral_0/s_axi]
# connect_bd_net [get_bd_pins processing_system7_0/FCLK_CLK2] \
#   [get_bd_pins processing_system7_0/M_AXI_GP0_ACLK] \
#   [get_bd_pins gp0_interconnect/ACLK] [get_bd_pins gp0_interconnect/S00_ACLK] \
#   [get_bd_pins gp0_interconnect/M00_ACLK] [get_bd_pins gp0_interconnect/M01_ACLK] \
#   [get_bd_pins p9_axil_clock_converter/s_axi_aclk] [get_bd_pins axi_dma_0/s_axi_lite_aclk]
# connect_bd_net [get_bd_pins rst_axil_50/interconnect_aresetn] \
#   [get_bd_pins gp0_interconnect/ARESETN] [get_bd_pins gp0_interconnect/S00_ARESETN] \
#   [get_bd_pins gp0_interconnect/M00_ARESETN] [get_bd_pins gp0_interconnect/M01_ARESETN]
# connect_bd_net [get_bd_pins rst_axil_50/peripheral_aresetn] [get_bd_pins p9_axil_clock_converter/s_axi_aresetn]
# connect_bd_net [get_bd_pins processing_system7_0/FCLK_CLK0] \
#   [get_bd_pins p9_axil_clock_converter/m_axi_aclk] [get_bd_pins p9_peripheral_0/s_axi_aclk]
# connect_bd_net [get_bd_pins rst_protocol_64/peripheral_aresetn] \
#   [get_bd_pins p9_axil_clock_converter/m_axi_aresetn] [get_bd_pins p9_peripheral_0/s_axi_aresetn]
# set hp_xbar [create_bd_cell -type ip -vlnv xilinx.com:ip:axi_interconnect:2.1 hp0_interconnect]
# set_property -dict [list CONFIG.NUM_SI {3} CONFIG.NUM_MI {1}] $hp_xbar
# connect_bd_intf_net [get_bd_intf_pins axi_dma_0/M_AXI_MM2S] [get_bd_intf_pins hp0_interconnect/S00_AXI]
# connect_bd_intf_net [get_bd_intf_pins axi_dma_0/M_AXI_S2MM] [get_bd_intf_pins hp0_interconnect/S01_AXI]
# connect_bd_intf_net [get_bd_intf_pins axi_dma_0/M_AXI_SG] [get_bd_intf_pins hp0_interconnect/S02_AXI]
# connect_bd_intf_net [get_bd_intf_pins hp0_interconnect/M00_AXI] [get_bd_intf_pins processing_system7_0/S_AXI_HP0]
# connect_bd_net [get_bd_pins processing_system7_0/FCLK_CLK1] \
#   [get_bd_pins processing_system7_0/S_AXI_HP0_ACLK] \
#   [get_bd_pins hp0_interconnect/ACLK] \
#   [get_bd_pins hp0_interconnect/S00_ACLK] [get_bd_pins hp0_interconnect/S01_ACLK] \
#   [get_bd_pins hp0_interconnect/S02_ACLK] [get_bd_pins hp0_interconnect/M00_ACLK] \
#   [get_bd_pins axi_dma_0/m_axi_sg_aclk] \
#   [get_bd_pins axi_dma_0/m_axi_mm2s_aclk] [get_bd_pins axi_dma_0/m_axi_s2mm_aclk]
# connect_bd_net [get_bd_pins rst_dma_100/interconnect_aresetn] \
#   [get_bd_pins hp0_interconnect/ARESETN] \
#   [get_bd_pins hp0_interconnect/S00_ARESETN] [get_bd_pins hp0_interconnect/S01_ARESETN] \
#   [get_bd_pins hp0_interconnect/S02_ARESETN] [get_bd_pins hp0_interconnect/M00_ARESETN]
# connect_bd_net [get_bd_pins rst_axil_50/peripheral_aresetn] [get_bd_pins axi_dma_0/axi_resetn]
# set mm2s_cc [create_bd_cell -type ip -vlnv xilinx.com:ip:axis_clock_converter:1.1 mm2s_axis_clock_converter]
# set s2mm_cc [create_bd_cell -type ip -vlnv xilinx.com:ip:axis_clock_converter:1.1 s2mm_axis_clock_converter]
# foreach cc [list $mm2s_cc $s2mm_cc] {
#   set_property -dict [list CONFIG.TDATA_NUM_BYTES {4} CONFIG.HAS_TKEEP {1} CONFIG.HAS_TLAST {1}] $cc
# }
# connect_bd_intf_net [get_bd_intf_pins axi_dma_0/M_AXIS_MM2S] [get_bd_intf_pins mm2s_axis_clock_converter/S_AXIS]
# connect_bd_intf_net [get_bd_intf_pins mm2s_axis_clock_converter/M_AXIS] [get_bd_intf_pins p9_peripheral_0/s_axis]
# connect_bd_intf_net [get_bd_intf_pins p9_peripheral_0/m_axis] [get_bd_intf_pins s2mm_axis_clock_converter/S_AXIS]
# connect_bd_intf_net [get_bd_intf_pins s2mm_axis_clock_converter/M_AXIS] [get_bd_intf_pins axi_dma_0/S_AXIS_S2MM]
# connect_bd_net [get_bd_pins processing_system7_0/FCLK_CLK1] \
#   [get_bd_pins mm2s_axis_clock_converter/s_axis_aclk] [get_bd_pins s2mm_axis_clock_converter/m_axis_aclk]
# connect_bd_net [get_bd_pins rst_dma_100/peripheral_aresetn] \
#   [get_bd_pins mm2s_axis_clock_converter/s_axis_aresetn] [get_bd_pins s2mm_axis_clock_converter/m_axis_aresetn]
# connect_bd_net [get_bd_pins processing_system7_0/FCLK_CLK0] \
#   [get_bd_pins mm2s_axis_clock_converter/m_axis_aclk] [get_bd_pins s2mm_axis_clock_converter/s_axis_aclk]
# connect_bd_net [get_bd_pins rst_protocol_64/peripheral_aresetn] \
#   [get_bd_pins mm2s_axis_clock_converter/m_axis_aresetn] [get_bd_pins s2mm_axis_clock_converter/s_axis_aresetn]
# set irq_concat [create_bd_cell -type ip -vlnv xilinx.com:ip:xlconcat:2.1 dma_irq_concat]
# set_property CONFIG.NUM_PORTS {2} $irq_concat
# connect_bd_net [get_bd_pins axi_dma_0/mm2s_introut] [get_bd_pins dma_irq_concat/In0]
# connect_bd_net [get_bd_pins axi_dma_0/s2mm_introut] [get_bd_pins dma_irq_concat/In1]
# connect_bd_net [get_bd_pins dma_irq_concat/dout] [get_bd_pins processing_system7_0/IRQ_F2P]
# foreach pin_name [list ir_mode_out_0 ir_rx_in_0 ir_sd_0 ir_tx_out_0 loop_mode_b0 loop_rx_b0 loop_sd_b0 loop_tx_b0] {
#   set pin [get_bd_pins "p9_peripheral_0/$pin_name"]
#   make_bd_pins_external $pin
#   set generated [get_bd_ports "${pin_name}_0"]
#   if {[llength $generated] == 1} { set_property name $pin_name $generated }
# }
# assign_bd_address
Slave segment '/processing_system7_0/S_AXI_HP0/HP0_DDR_LOWOCM' is being assigned into address space '/axi_dma_0/Data_MM2S' at <0x0000_0000 [ 512M ]>.
Slave segment '/processing_system7_0/S_AXI_HP0/HP0_DDR_LOWOCM' is being assigned into address space '/axi_dma_0/Data_S2MM' at <0x0000_0000 [ 512M ]>.
Slave segment '/processing_system7_0/S_AXI_HP0/HP0_DDR_LOWOCM' is being assigned into address space '/axi_dma_0/Data_SG' at <0x0000_0000 [ 512M ]>.
Slave segment '/axi_dma_0/S_AXI_LITE/Reg' is being assigned into address space '/processing_system7_0/Data' at <0x4040_0000 [ 64K ]>.
Slave segment '/p9_peripheral_0/s_axi/reg0' is being assigned into address space '/processing_system7_0/Data' at <0x4000_0000 [ 4K ]>.
# assign_bd_address -offset 0x40400000 -range 64K \
#   -target_address_space [get_bd_addr_spaces processing_system7_0/Data] \
#   [get_bd_addr_segs axi_dma_0/S_AXI_LITE/Reg] -force
# assign_bd_address -offset 0x43C00000 -range 4K \
#   -target_address_space [get_bd_addr_spaces processing_system7_0/Data] \
#   [get_bd_addr_segs p9_peripheral_0/s_axi/reg0] -force
Slave segment '/p9_peripheral_0/s_axi/reg0' is being assigned into address space '/processing_system7_0/Data' at <0x43C0_0000 [ 4K ]>.
# validate_bd_design
# save_bd_design
Wrote  : <C:\Users\user\Documents\RF_COMM_MULTILANE_P9\build\p9_z7010_candidate\project\p9_z7010_candidate.srcs\sources_1\bd\p9_ps_system\p9_ps_system.bd> 
# generate_target all [get_files p9_ps_system.bd]
INFO: [BD 41-1662] The design 'p9_ps_system.bd' is already validated. Therefore parameter propagation will not be re-run.
WARNING: [BD 41-2384] Width mismatch when connecting pin: '/hp0_interconnect/m00_couplers/auto_pc/m_axi_rid'(2) to pin: '/hp0_interconnect/m00_couplers/M_AXI_rid'(6) - Only lower order bits will be connected.
WARNING: [BD 41-2384] Width mismatch when connecting pin: '/hp0_interconnect/m00_couplers/auto_pc/m_axi_bid'(2) to pin: '/hp0_interconnect/m00_couplers/M_AXI_bid'(6) - Only lower order bits will be connected.
WARNING: [BD 41-2384] Width mismatch when connecting pin: '/processing_system7_0/S_AXI_HP0_WID'(6) to pin: '/hp0_interconnect/M00_AXI_wid'(2) - Only lower order bits will be connected.
WARNING: [BD 41-2384] Width mismatch when connecting pin: '/processing_system7_0/S_AXI_HP0_ARID'(6) to pin: '/hp0_interconnect/M00_AXI_arid'(2) - Only lower order bits will be connected.
WARNING: [BD 41-2384] Width mismatch when connecting pin: '/processing_system7_0/S_AXI_HP0_AWID'(6) to pin: '/hp0_interconnect/M00_AXI_awid'(2) - Only lower order bits will be connected.
Verilog Output written to : C:/Users/user/Documents/RF_COMM_MULTILANE_P9/build/p9_z7010_candidate/project/p9_z7010_candidate.gen/sources_1/bd/p9_ps_system/synth/p9_ps_system.v
WARNING: [BD 41-2384] Width mismatch when connecting pin: '/hp0_interconnect/m00_couplers/auto_pc/m_axi_rid'(2) to pin: '/hp0_interconnect/m00_couplers/M_AXI_rid'(6) - Only lower order bits will be connected.
WARNING: [BD 41-2384] Width mismatch when connecting pin: '/hp0_interconnect/m00_couplers/auto_pc/m_axi_bid'(2) to pin: '/hp0_interconnect/m00_couplers/M_AXI_bid'(6) - Only lower order bits will be connected.
WARNING: [BD 41-2384] Width mismatch when connecting pin: '/processing_system7_0/S_AXI_HP0_WID'(6) to pin: '/hp0_interconnect/M00_AXI_wid'(2) - Only lower order bits will be connected.
WARNING: [BD 41-2384] Width mismatch when connecting pin: '/processing_system7_0/S_AXI_HP0_ARID'(6) to pin: '/hp0_interconnect/M00_AXI_arid'(2) - Only lower order bits will be connected.
WARNING: [BD 41-2384] Width mismatch when connecting pin: '/processing_system7_0/S_AXI_HP0_AWID'(6) to pin: '/hp0_interconnect/M00_AXI_awid'(2) - Only lower order bits will be connected.
Verilog Output written to : C:/Users/user/Documents/RF_COMM_MULTILANE_P9/build/p9_z7010_candidate/project/p9_z7010_candidate.gen/sources_1/bd/p9_ps_system/sim/p9_ps_system.v
Verilog Output written to : C:/Users/user/Documents/RF_COMM_MULTILANE_P9/build/p9_z7010_candidate/project/p9_z7010_candidate.gen/sources_1/bd/p9_ps_system/hdl/p9_ps_system_wrapper.v
INFO: [IP_Flow 19-5611] Unable to find an associated reset port for the interface 'M_AXI_GP0'. A default connection has been created.
INFO: [IP_Flow 19-5611] Unable to find an associated reset port for the interface 'S_AXI_HP0'. A default connection has been created.
INFO: [BD 41-1029] Generation completed for the IP Integrator block processing_system7_0 .
INFO: [BD 41-1029] Generation completed for the IP Integrator block axi_dma_0 .
INFO: [BD 41-1029] Generation completed for the IP Integrator block p9_peripheral_0 .
INFO: [BD 41-1029] Generation completed for the IP Integrator block rst_protocol_64 .
INFO: [BD 41-1029] Generation completed for the IP Integrator block rst_dma_100 .
INFO: [BD 41-1029] Generation completed for the IP Integrator block rst_axil_50 .
INFO: [BD 41-1029] Generation completed for the IP Integrator block gp0_interconnect/xbar .
WARNING: [IP_Flow 19-4994] Overwriting existing constraint file 'c:/Users/user/Documents/RF_COMM_MULTILANE_P9/build/p9_z7010_candidate/project/p9_z7010_candidate.gen/sources_1/bd/p9_ps_system/ip/p9_ps_system_auto_pc_0/p9_ps_system_auto_pc_0_ooc.xdc'
INFO: [BD 41-1029] Generation completed for the IP Integrator block gp0_interconnect/s00_couplers/auto_pc .
WARNING: [IP_Flow 19-4994] Overwriting existing constraint file 'c:/Users/user/Documents/RF_COMM_MULTILANE_P9/build/p9_z7010_candidate/project/p9_z7010_candidate.gen/sources_1/bd/p9_ps_system/ip/p9_ps_system_p9_axil_clock_converter_0/p9_ps_system_p9_axil_clock_converter_0_ooc.xdc'
INFO: [IP_Flow 19-5611] Unable to find an associated reset port for the interface 'S_AXI'. A default connection has been created.
INFO: [IP_Flow 19-5611] Unable to find an associated reset port for the interface 'M_AXI'. A default connection has been created.
INFO: [BD 41-1029] Generation completed for the IP Integrator block p9_axil_clock_converter .
INFO: [BD 41-1029] Generation completed for the IP Integrator block hp0_interconnect/xbar .
WARNING: [IP_Flow 19-4994] Overwriting existing constraint file 'c:/Users/user/Documents/RF_COMM_MULTILANE_P9/build/p9_z7010_candidate/project/p9_z7010_candidate.gen/sources_1/bd/p9_ps_system/ip/p9_ps_system_auto_us_0/p9_ps_system_auto_us_0_ooc.xdc'
INFO: [IP_Flow 19-5611] Unable to find an associated reset port for the interface 'S_AXI'. A default connection has been created.
INFO: [IP_Flow 19-5611] Unable to find an associated reset port for the interface 'M_AXI'. A default connection has been created.
INFO: [BD 41-1029] Generation completed for the IP Integrator block hp0_interconnect/s00_couplers/auto_us .
WARNING: [IP_Flow 19-4994] Overwriting existing constraint file 'c:/Users/user/Documents/RF_COMM_MULTILANE_P9/build/p9_z7010_candidate/project/p9_z7010_candidate.gen/sources_1/bd/p9_ps_system/ip/p9_ps_system_auto_us_1/p9_ps_system_auto_us_1_ooc.xdc'
INFO: [IP_Flow 19-5611] Unable to find an associated reset port for the interface 'S_AXI'. A default connection has been created.
INFO: [IP_Flow 19-5611] Unable to find an associated reset port for the interface 'M_AXI'. A default connection has been created.
INFO: [BD 41-1029] Generation completed for the IP Integrator block hp0_interconnect/s01_couplers/auto_us .
WARNING: [IP_Flow 19-4994] Overwriting existing constraint file 'c:/Users/user/Documents/RF_COMM_MULTILANE_P9/build/p9_z7010_candidate/project/p9_z7010_candidate.gen/sources_1/bd/p9_ps_system/ip/p9_ps_system_auto_us_2/p9_ps_system_auto_us_2_ooc.xdc'
INFO: [IP_Flow 19-5611] Unable to find an associated reset port for the interface 'S_AXI'. A default connection has been created.
INFO: [IP_Flow 19-5611] Unable to find an associated reset port for the interface 'M_AXI'. A default connection has been created.
INFO: [BD 41-1029] Generation completed for the IP Integrator block hp0_interconnect/s02_couplers/auto_us .
WARNING: [IP_Flow 19-4994] Overwriting existing constraint file 'c:/Users/user/Documents/RF_COMM_MULTILANE_P9/build/p9_z7010_candidate/project/p9_z7010_candidate.gen/sources_1/bd/p9_ps_system/ip/p9_ps_system_auto_pc_1/p9_ps_system_auto_pc_1_ooc.xdc'
INFO: [BD 41-1029] Generation completed for the IP Integrator block hp0_interconnect/m00_couplers/auto_pc .
WARNING: [IP_Flow 19-4994] Overwriting existing constraint file 'c:/Users/user/Documents/RF_COMM_MULTILANE_P9/build/p9_z7010_candidate/project/p9_z7010_candidate.gen/sources_1/bd/p9_ps_system/ip/p9_ps_system_mm2s_axis_clock_converter_0/p9_ps_system_mm2s_axis_clock_converter_0_ooc.xdc'
INFO: [BD 41-1029] Generation completed for the IP Integrator block mm2s_axis_clock_converter .
WARNING: [IP_Flow 19-4994] Overwriting existing constraint file 'c:/Users/user/Documents/RF_COMM_MULTILANE_P9/build/p9_z7010_candidate/project/p9_z7010_candidate.gen/sources_1/bd/p9_ps_system/ip/p9_ps_system_s2mm_axis_clock_converter_0/p9_ps_system_s2mm_axis_clock_converter_0_ooc.xdc'
INFO: [BD 41-1029] Generation completed for the IP Integrator block s2mm_axis_clock_converter .
INFO: [BD 41-1029] Generation completed for the IP Integrator block dma_irq_concat .
Exporting to file C:/Users/user/Documents/RF_COMM_MULTILANE_P9/build/p9_z7010_candidate/project/p9_z7010_candidate.gen/sources_1/bd/p9_ps_system/hw_handoff/p9_ps_system.hwh
Generated Hardware Definition File C:/Users/user/Documents/RF_COMM_MULTILANE_P9/build/p9_z7010_candidate/project/p9_z7010_candidate.gen/sources_1/bd/p9_ps_system/synth/p9_ps_system.hwdef
generate_target: Time (s): cpu = 00:00:10 ; elapsed = 00:00:11 . Memory (MB): peak = 1919.863 ; gain = 315.609
# make_wrapper -files [get_files p9_ps_system.bd] -top
# add_files -norecurse "$build_dir/project/p9_z7010_candidate.gen/sources_1/bd/p9_ps_system/hdl/p9_ps_system_wrapper.v"
# set_property top p9_ps_system_wrapper [current_fileset]
# update_compile_order -fileset sources_1
# set_property STEPS.PHYS_OPT_DESIGN.IS_ENABLED true [get_runs impl_1]
# set_property STEPS.PHYS_OPT_DESIGN.ARGS.DIRECTIVE AggressiveExplore [get_runs impl_1]
# launch_runs impl_1 -to_step write_bitstream -jobs 8
INFO: [IP_Flow 19-6930] IPCACHE: runCacheChecks() number of threads = 8
INFO: [IP_Flow 19-6921] IPCACHE: Adding cache check func to thread queue for IP p9_ps_system_auto_pc_0
INFO: [IP_Flow 19-6921] IPCACHE: Adding cache check func to thread queue for IP p9_ps_system_auto_pc_1
INFO: [IP_Flow 19-6921] IPCACHE: Adding cache check func to thread queue for IP p9_ps_system_auto_us_0
INFO: [IP_Flow 19-6921] IPCACHE: Adding cache check func to thread queue for IP p9_ps_system_auto_us_1
INFO: [IP_Flow 19-6921] IPCACHE: Adding cache check func to thread queue for IP p9_ps_system_auto_us_2
INFO: [IP_Flow 19-6921] IPCACHE: Adding cache check func to thread queue for IP p9_ps_system_axi_dma_0_0
INFO: [IP_Flow 19-6921] IPCACHE: Adding cache check func to thread queue for IP p9_ps_system_mm2s_axis_clock_converter_0
INFO: [IP_Flow 19-6921] IPCACHE: Adding cache check func to thread queue for IP p9_ps_system_p9_axil_clock_converter_0
INFO: [IP_Flow 19-6921] IPCACHE: Adding cache check func to thread queue for IP p9_ps_system_p9_peripheral_0_0
INFO: [IP_Flow 19-6921] IPCACHE: Adding cache check func to thread queue for IP p9_ps_system_rst_axil_50_0
INFO: [IP_Flow 19-6921] IPCACHE: Adding cache check func to thread queue for IP p9_ps_system_rst_dma_100_0
INFO: [IP_Flow 19-6921] IPCACHE: Adding cache check func to thread queue for IP p9_ps_system_rst_protocol_64_0
INFO: [IP_Flow 19-6921] IPCACHE: Adding cache check func to thread queue for IP p9_ps_system_s2mm_axis_clock_converter_0
INFO: [IP_Flow 19-6921] IPCACHE: Adding cache check func to thread queue for IP p9_ps_system_xbar_0
INFO: [IP_Flow 19-6921] IPCACHE: Adding cache check func to thread queue for IP p9_ps_system_xbar_1
INFO: [IP_Flow 19-8020] IPCACHE: runCacheChecks() calling threadPool finishWork()
INFO: [IP_Flow 19-6924] IPCACHE: Running cache check for IP inst: p9_ps_system_auto_pc_0
INFO: [IP_Flow 19-6924] IPCACHE: Running cache check for IP inst: p9_ps_system_auto_pc_1
INFO: [IP_Flow 19-6924] IPCACHE: Running cache check for IP inst: p9_ps_system_s2mm_axis_clock_converter_0
INFO: [IP_Flow 19-6924] IPCACHE: Running cache check for IP inst: p9_ps_system_auto_us_0
INFO: [IP_Flow 19-6924] IPCACHE: Running cache check for IP inst: p9_ps_system_auto_us_1
INFO: [IP_Flow 19-6924] IPCACHE: Running cache check for IP inst: p9_ps_system_rst_protocol_64_0
INFO: [IP_Flow 19-6924] IPCACHE: Running cache check for IP inst: p9_ps_system_rst_dma_100_0
INFO: [IP_Flow 19-6924] IPCACHE: Running cache check for IP inst: p9_ps_system_auto_us_2
INFO: [IP_Flow 19-6924] IPCACHE: Running cache check for IP inst: p9_ps_system_axi_dma_0_0
INFO: [IP_Flow 19-6924] IPCACHE: Running cache check for IP inst: p9_ps_system_xbar_1
INFO: [IP_Flow 19-6924] IPCACHE: Running cache check for IP inst: p9_ps_system_xbar_0
INFO: [IP_Flow 19-6924] IPCACHE: Running cache check for IP inst: p9_ps_system_mm2s_axis_clock_converter_0
INFO: [IP_Flow 19-6924] IPCACHE: Running cache check for IP inst: p9_ps_system_p9_axil_clock_converter_0
INFO: [IP_Flow 19-6924] IPCACHE: Running cache check for IP inst: p9_ps_system_p9_peripheral_0_0
INFO: [IP_Flow 19-6924] IPCACHE: Running cache check for IP inst: p9_ps_system_rst_axil_50_0

[Mon Jul 27 12:33:53 2026] Launched p9_ps_system_processing_system7_0_0_synth_1, p9_ps_system_axi_dma_0_0_synth_1, p9_ps_system_rst_dma_100_0_synth_1, p9_ps_system_rst_axil_50_0_synth_1, p9_ps_system_p9_axil_clock_converter_0_synth_1, p9_ps_system_xbar_1_synth_1, p9_ps_system_auto_pc_0_synth_1, p9_ps_system_rst_protocol_64_0_synth_1, p9_ps_system_xbar_0_synth_1, p9_ps_system_p9_peripheral_0_0_synth_1, p9_ps_system_auto_us_0_synth_1, p9_ps_system_auto_us_1_synth_1, p9_ps_system_auto_pc_1_synth_1, p9_ps_system_auto_us_2_synth_1, p9_ps_system_mm2s_axis_clock_converter_0_synth_1, p9_ps_system_s2mm_axis_clock_converter_0_synth_1, synth_1...
Run output will be captured here:
p9_ps_system_processing_system7_0_0_synth_1: C:/Users/user/Documents/RF_COMM_MULTILANE_P9/build/p9_z7010_candidate/project/p9_z7010_candidate.runs/p9_ps_system_processing_system7_0_0_synth_1/runme.log
p9_ps_system_axi_dma_0_0_synth_1: C:/Users/user/Documents/RF_COMM_MULTILANE_P9/build/p9_z7010_candidate/project/p9_z7010_candidate.runs/p9_ps_system_axi_dma_0_0_synth_1/runme.log
p9_ps_system_rst_dma_100_0_synth_1: C:/Users/user/Documents/RF_COMM_MULTILANE_P9/build/p9_z7010_candidate/project/p9_z7010_candidate.runs/p9_ps_system_rst_dma_100_0_synth_1/runme.log
p9_ps_system_rst_axil_50_0_synth_1: C:/Users/user/Documents/RF_COMM_MULTILANE_P9/build/p9_z7010_candidate/project/p9_z7010_candidate.runs/p9_ps_system_rst_axil_50_0_synth_1/runme.log
p9_ps_system_p9_axil_clock_converter_0_synth_1: C:/Users/user/Documents/RF_COMM_MULTILANE_P9/build/p9_z7010_candidate/project/p9_z7010_candidate.runs/p9_ps_system_p9_axil_clock_converter_0_synth_1/runme.log
p9_ps_system_xbar_1_synth_1: C:/Users/user/Documents/RF_COMM_MULTILANE_P9/build/p9_z7010_candidate/project/p9_z7010_candidate.runs/p9_ps_system_xbar_1_synth_1/runme.log
p9_ps_system_auto_pc_0_synth_1: C:/Users/user/Documents/RF_COMM_MULTILANE_P9/build/p9_z7010_candidate/project/p9_z7010_candidate.runs/p9_ps_system_auto_pc_0_synth_1/runme.log
p9_ps_system_rst_protocol_64_0_synth_1: C:/Users/user/Documents/RF_COMM_MULTILANE_P9/build/p9_z7010_candidate/project/p9_z7010_candidate.runs/p9_ps_system_rst_protocol_64_0_synth_1/runme.log
p9_ps_system_xbar_0_synth_1: C:/Users/user/Documents/RF_COMM_MULTILANE_P9/build/p9_z7010_candidate/project/p9_z7010_candidate.runs/p9_ps_system_xbar_0_synth_1/runme.log
p9_ps_system_p9_peripheral_0_0_synth_1: C:/Users/user/Documents/RF_COMM_MULTILANE_P9/build/p9_z7010_candidate/project/p9_z7010_candidate.runs/p9_ps_system_p9_peripheral_0_0_synth_1/runme.log
p9_ps_system_auto_us_0_synth_1: C:/Users/user/Documents/RF_COMM_MULTILANE_P9/build/p9_z7010_candidate/project/p9_z7010_candidate.runs/p9_ps_system_auto_us_0_synth_1/runme.log
p9_ps_system_auto_us_1_synth_1: C:/Users/user/Documents/RF_COMM_MULTILANE_P9/build/p9_z7010_candidate/project/p9_z7010_candidate.runs/p9_ps_system_auto_us_1_synth_1/runme.log
p9_ps_system_auto_pc_1_synth_1: C:/Users/user/Documents/RF_COMM_MULTILANE_P9/build/p9_z7010_candidate/project/p9_z7010_candidate.runs/p9_ps_system_auto_pc_1_synth_1/runme.log
p9_ps_system_auto_us_2_synth_1: C:/Users/user/Documents/RF_COMM_MULTILANE_P9/build/p9_z7010_candidate/project/p9_z7010_candidate.runs/p9_ps_system_auto_us_2_synth_1/runme.log
p9_ps_system_mm2s_axis_clock_converter_0_synth_1: C:/Users/user/Documents/RF_COMM_MULTILANE_P9/build/p9_z7010_candidate/project/p9_z7010_candidate.runs/p9_ps_system_mm2s_axis_clock_converter_0_synth_1/runme.log
p9_ps_system_s2mm_axis_clock_converter_0_synth_1: C:/Users/user/Documents/RF_COMM_MULTILANE_P9/build/p9_z7010_candidate/project/p9_z7010_candidate.runs/p9_ps_system_s2mm_axis_clock_converter_0_synth_1/runme.log
synth_1: C:/Users/user/Documents/RF_COMM_MULTILANE_P9/build/p9_z7010_candidate/project/p9_z7010_candidate.runs/synth_1/runme.log
[Mon Jul 27 12:33:53 2026] Launched impl_1...
Run output will be captured here: C:/Users/user/Documents/RF_COMM_MULTILANE_P9/build/p9_z7010_candidate/project/p9_z7010_candidate.runs/impl_1/runme.log
# wait_on_run impl_1
[Mon Jul 27 12:33:53 2026] Waiting for impl_1 to finish...

*** Running vivado
    with args -log p9_ps_system_wrapper.vdi -applog -m64 -product Vivado -messageDb vivado.pb -mode batch -source p9_ps_system_wrapper.tcl -notrace



****** Vivado v2023.1 (64-bit)
  **** SW Build 3865809 on Sun May  7 15:05:29 MDT 2023
  **** IP Build 3864474 on Sun May  7 20:36:21 MDT 2023
  **** SharedData Build 3865790 on Sun May 07 13:33:03 MDT 2023
    ** Copyright 1986-2022 Xilinx, Inc. All Rights Reserved.
    ** Copyright 2022-2023 Advanced Micro Devices, Inc. All Rights Reserved.

Sourcing tcl script 'D:/Xilinx/Vivado/2023.1/scripts/Vivado_init.tcl'
vivado-mcp server ready on port 10000
source p9_ps_system_wrapper.tcl -notrace
INFO: [IP_Flow 19-234] Refreshing IP repositories
INFO: [IP_Flow 19-1704] No user IP repositories specified
INFO: [IP_Flow 19-2313] Loaded Vivado IP repository 'D:/Xilinx/Vivado/2023.1/data/ip'.
Command: link_design -top p9_ps_system_wrapper -part xc7z010clg400-1
Design is defaulting to srcset: sources_1
Design is defaulting to constrset: constrs_1
INFO: [Device 21-403] Loading part xc7z010clg400-1
INFO: [Project 1-454] Reading design checkpoint 'c:/Users/user/Documents/RF_COMM_MULTILANE_P9/build/p9_z7010_candidate/project/p9_z7010_candidate.gen/sources_1/bd/p9_ps_system/ip/p9_ps_system_axi_dma_0_0/p9_ps_system_axi_dma_0_0.dcp' for cell 'p9_ps_system_i/axi_dma_0'
INFO: [Project 1-454] Reading design checkpoint 'c:/Users/user/Documents/RF_COMM_MULTILANE_P9/build/p9_z7010_candidate/project/p9_z7010_candidate.gen/sources_1/bd/p9_ps_system/ip/p9_ps_system_mm2s_axis_clock_converter_0/p9_ps_system_mm2s_axis_clock_converter_0.dcp' for cell 'p9_ps_system_i/mm2s_axis_clock_converter'
INFO: [Project 1-454] Reading design checkpoint 'c:/Users/user/Documents/RF_COMM_MULTILANE_P9/build/p9_z7010_candidate/project/p9_z7010_candidate.gen/sources_1/bd/p9_ps_system/ip/p9_ps_system_p9_axil_clock_converter_0/p9_ps_system_p9_axil_clock_converter_0.dcp' for cell 'p9_ps_system_i/p9_axil_clock_converter'
INFO: [Project 1-454] Reading design checkpoint 'c:/Users/user/Documents/RF_COMM_MULTILANE_P9/build/p9_z7010_candidate/project/p9_z7010_candidate.gen/sources_1/bd/p9_ps_system/ip/p9_ps_system_p9_peripheral_0_0/p9_ps_system_p9_peripheral_0_0.dcp' for cell 'p9_ps_system_i/p9_peripheral_0'
INFO: [Project 1-454] Reading design checkpoint 'c:/Users/user/Documents/RF_COMM_MULTILANE_P9/build/p9_z7010_candidate/project/p9_z7010_candidate.gen/sources_1/bd/p9_ps_system/ip/p9_ps_system_processing_system7_0_0/p9_ps_system_processing_system7_0_0.dcp' for cell 'p9_ps_system_i/processing_system7_0'
INFO: [Project 1-454] Reading design checkpoint 'c:/Users/user/Documents/RF_COMM_MULTILANE_P9/build/p9_z7010_candidate/project/p9_z7010_candidate.gen/sources_1/bd/p9_ps_system/ip/p9_ps_system_rst_axil_50_0/p9_ps_system_rst_axil_50_0.dcp' for cell 'p9_ps_system_i/rst_axil_50'
INFO: [Project 1-454] Reading design checkpoint 'c:/Users/user/Documents/RF_COMM_MULTILANE_P9/build/p9_z7010_candidate/project/p9_z7010_candidate.gen/sources_1/bd/p9_ps_system/ip/p9_ps_system_rst_dma_100_0/p9_ps_system_rst_dma_100_0.dcp' for cell 'p9_ps_system_i/rst_dma_100'
INFO: [Project 1-454] Reading design checkpoint 'c:/Users/user/Documents/RF_COMM_MULTILANE_P9/build/p9_z7010_candidate/project/p9_z7010_candidate.gen/sources_1/bd/p9_ps_system/ip/p9_ps_system_rst_protocol_64_0/p9_ps_system_rst_protocol_64_0.dcp' for cell 'p9_ps_system_i/rst_protocol_64'
INFO: [Project 1-454] Reading design checkpoint 'c:/Users/user/Documents/RF_COMM_MULTILANE_P9/build/p9_z7010_candidate/project/p9_z7010_candidate.gen/sources_1/bd/p9_ps_system/ip/p9_ps_system_s2mm_axis_clock_converter_0/p9_ps_system_s2mm_axis_clock_converter_0.dcp' for cell 'p9_ps_system_i/s2mm_axis_clock_converter'
INFO: [Project 1-454] Reading design checkpoint 'c:/Users/user/Documents/RF_COMM_MULTILANE_P9/build/p9_z7010_candidate/project/p9_z7010_candidate.gen/sources_1/bd/p9_ps_system/ip/p9_ps_system_xbar_0/p9_ps_system_xbar_0.dcp' for cell 'p9_ps_system_i/gp0_interconnect/xbar'
INFO: [Project 1-454] Reading design checkpoint 'c:/Users/user/Documents/RF_COMM_MULTILANE_P9/build/p9_z7010_candidate/project/p9_z7010_candidate.gen/sources_1/bd/p9_ps_system/ip/p9_ps_system_auto_pc_0/p9_ps_system_auto_pc_0.dcp' for cell 'p9_ps_system_i/gp0_interconnect/s00_couplers/auto_pc'
INFO: [Project 1-454] Reading design checkpoint 'c:/Users/user/Documents/RF_COMM_MULTILANE_P9/build/p9_z7010_candidate/project/p9_z7010_candidate.gen/sources_1/bd/p9_ps_system/ip/p9_ps_system_xbar_1/p9_ps_system_xbar_1.dcp' for cell 'p9_ps_system_i/hp0_interconnect/xbar'
INFO: [Project 1-454] Reading design checkpoint 'c:/Users/user/Documents/RF_COMM_MULTILANE_P9/build/p9_z7010_candidate/project/p9_z7010_candidate.gen/sources_1/bd/p9_ps_system/ip/p9_ps_system_auto_pc_1/p9_ps_system_auto_pc_1.dcp' for cell 'p9_ps_system_i/hp0_interconnect/m00_couplers/auto_pc'
INFO: [Project 1-454] Reading design checkpoint 'c:/Users/user/Documents/RF_COMM_MULTILANE_P9/build/p9_z7010_candidate/project/p9_z7010_candidate.gen/sources_1/bd/p9_ps_system/ip/p9_ps_system_auto_us_0/p9_ps_system_auto_us_0.dcp' for cell 'p9_ps_system_i/hp0_interconnect/s00_couplers/auto_us'
INFO: [Project 1-454] Reading design checkpoint 'c:/Users/user/Documents/RF_COMM_MULTILANE_P9/build/p9_z7010_candidate/project/p9_z7010_candidate.gen/sources_1/bd/p9_ps_system/ip/p9_ps_system_auto_us_1/p9_ps_system_auto_us_1.dcp' for cell 'p9_ps_system_i/hp0_interconnect/s01_couplers/auto_us'
INFO: [Project 1-454] Reading design checkpoint 'c:/Users/user/Documents/RF_COMM_MULTILANE_P9/build/p9_z7010_candidate/project/p9_z7010_candidate.gen/sources_1/bd/p9_ps_system/ip/p9_ps_system_auto_us_2/p9_ps_system_auto_us_2.dcp' for cell 'p9_ps_system_i/hp0_interconnect/s02_couplers/auto_us'
Netlist sorting complete. Time (s): cpu = 00:00:00 ; elapsed = 00:00:00.219 . Memory (MB): peak = 1927.309 ; gain = 0.000
INFO: [Netlist 29-17] Analyzing 2131 Unisim elements for replacement
INFO: [Netlist 29-28] Unisim Transformation completed in 0 CPU seconds
INFO: [Project 1-479] Netlist was created with Vivado 2023.1
INFO: [Project 1-570] Preparing netlist for logic optimization
Parsing XDC File [c:/Users/user/Documents/RF_COMM_MULTILANE_P9/build/p9_z7010_candidate/project/p9_z7010_candidate.gen/sources_1/bd/p9_ps_system/ip/p9_ps_system_processing_system7_0_0/p9_ps_system_processing_system7_0_0.xdc] for cell 'p9_ps_system_i/processing_system7_0/inst'
WARNING: [Vivado 12-2489] -input_jitter contains time 0.468750 which will be rounded to 0.469 to ensure it is an integer multiple of 1 picosecond [c:/Users/user/Documents/RF_COMM_MULTILANE_P9/build/p9_z7010_candidate/project/p9_z7010_candidate.gen/sources_1/bd/p9_ps_system/ip/p9_ps_system_processing_system7_0_0/p9_ps_system_processing_system7_0_0.xdc:24]
Finished Parsing XDC File [c:/Users/user/Documents/RF_COMM_MULTILANE_P9/build/p9_z7010_candidate/project/p9_z7010_candidate.gen/sources_1/bd/p9_ps_system/ip/p9_ps_system_processing_system7_0_0/p9_ps_system_processing_system7_0_0.xdc] for cell 'p9_ps_system_i/processing_system7_0/inst'
Parsing XDC File [c:/Users/user/Documents/RF_COMM_MULTILANE_P9/build/p9_z7010_candidate/project/p9_z7010_candidate.gen/sources_1/bd/p9_ps_system/ip/p9_ps_system_axi_dma_0_0/p9_ps_system_axi_dma_0_0.xdc] for cell 'p9_ps_system_i/axi_dma_0/U0'
WARNING: [Vivado_Tcl 4-919] Waiver ID 'CDC-1' -from list should not be empty. [c:/Users/user/Documents/RF_COMM_MULTILANE_P9/build/p9_z7010_candidate/project/p9_z7010_candidate.gen/sources_1/bd/p9_ps_system/ip/p9_ps_system_axi_dma_0_0/p9_ps_system_axi_dma_0_0.xdc:61]
Finished Parsing XDC File [c:/Users/user/Documents/RF_COMM_MULTILANE_P9/build/p9_z7010_candidate/project/p9_z7010_candidate.gen/sources_1/bd/p9_ps_system/ip/p9_ps_system_axi_dma_0_0/p9_ps_system_axi_dma_0_0.xdc] for cell 'p9_ps_system_i/axi_dma_0/U0'
Parsing XDC File [c:/Users/user/Documents/RF_COMM_MULTILANE_P9/build/p9_z7010_candidate/project/p9_z7010_candidate.gen/sources_1/bd/p9_ps_system/ip/p9_ps_system_rst_protocol_64_0/p9_ps_system_rst_protocol_64_0_board.xdc] for cell 'p9_ps_system_i/rst_protocol_64/U0'
Finished Parsing XDC File [c:/Users/user/Documents/RF_COMM_MULTILANE_P9/build/p9_z7010_candidate/project/p9_z7010_candidate.gen/sources_1/bd/p9_ps_system/ip/p9_ps_system_rst_protocol_64_0/p9_ps_system_rst_protocol_64_0_board.xdc] for cell 'p9_ps_system_i/rst_protocol_64/U0'
Parsing XDC File [c:/Users/user/Documents/RF_COMM_MULTILANE_P9/build/p9_z7010_candidate/project/p9_z7010_candidate.gen/sources_1/bd/p9_ps_system/ip/p9_ps_system_rst_protocol_64_0/p9_ps_system_rst_protocol_64_0.xdc] for cell 'p9_ps_system_i/rst_protocol_64/U0'
Finished Parsing XDC File [c:/Users/user/Documents/RF_COMM_MULTILANE_P9/build/p9_z7010_candidate/project/p9_z7010_candidate.gen/sources_1/bd/p9_ps_system/ip/p9_ps_system_rst_protocol_64_0/p9_ps_system_rst_protocol_64_0.xdc] for cell 'p9_ps_system_i/rst_protocol_64/U0'
Parsing XDC File [c:/Users/user/Documents/RF_COMM_MULTILANE_P9/build/p9_z7010_candidate/project/p9_z7010_candidate.gen/sources_1/bd/p9_ps_system/ip/p9_ps_system_rst_dma_100_0/p9_ps_system_rst_dma_100_0_board.xdc] for cell 'p9_ps_system_i/rst_dma_100/U0'
Finished Parsing XDC File [c:/Users/user/Documents/RF_COMM_MULTILANE_P9/build/p9_z7010_candidate/project/p9_z7010_candidate.gen/sources_1/bd/p9_ps_system/ip/p9_ps_system_rst_dma_100_0/p9_ps_system_rst_dma_100_0_board.xdc] for cell 'p9_ps_system_i/rst_dma_100/U0'
Parsing XDC File [c:/Users/user/Documents/RF_COMM_MULTILANE_P9/build/p9_z7010_candidate/project/p9_z7010_candidate.gen/sources_1/bd/p9_ps_system/ip/p9_ps_system_rst_dma_100_0/p9_ps_system_rst_dma_100_0.xdc] for cell 'p9_ps_system_i/rst_dma_100/U0'
Finished Parsing XDC File [c:/Users/user/Documents/RF_COMM_MULTILANE_P9/build/p9_z7010_candidate/project/p9_z7010_candidate.gen/sources_1/bd/p9_ps_system/ip/p9_ps_system_rst_dma_100_0/p9_ps_system_rst_dma_100_0.xdc] for cell 'p9_ps_system_i/rst_dma_100/U0'
Parsing XDC File [c:/Users/user/Documents/RF_COMM_MULTILANE_P9/build/p9_z7010_candidate/project/p9_z7010_candidate.gen/sources_1/bd/p9_ps_system/ip/p9_ps_system_rst_axil_50_0/p9_ps_system_rst_axil_50_0_board.xdc] for cell 'p9_ps_system_i/rst_axil_50/U0'
Finished Parsing XDC File [c:/Users/user/Documents/RF_COMM_MULTILANE_P9/build/p9_z7010_candidate/project/p9_z7010_candidate.gen/sources_1/bd/p9_ps_system/ip/p9_ps_system_rst_axil_50_0/p9_ps_system_rst_axil_50_0_board.xdc] for cell 'p9_ps_system_i/rst_axil_50/U0'
Parsing XDC File [c:/Users/user/Documents/RF_COMM_MULTILANE_P9/build/p9_z7010_candidate/project/p9_z7010_candidate.gen/sources_1/bd/p9_ps_system/ip/p9_ps_system_rst_axil_50_0/p9_ps_system_rst_axil_50_0.xdc] for cell 'p9_ps_system_i/rst_axil_50/U0'
Finished Parsing XDC File [c:/Users/user/Documents/RF_COMM_MULTILANE_P9/build/p9_z7010_candidate/project/p9_z7010_candidate.gen/sources_1/bd/p9_ps_system/ip/p9_ps_system_rst_axil_50_0/p9_ps_system_rst_axil_50_0.xdc] for cell 'p9_ps_system_i/rst_axil_50/U0'
Parsing XDC File [C:/Users/user/Documents/RF_COMM_MULTILANE_P9/constraints/active/PORT1.generated.xdc]
Finished Parsing XDC File [C:/Users/user/Documents/RF_COMM_MULTILANE_P9/constraints/active/PORT1.generated.xdc]
Parsing XDC File [c:/Users/user/Documents/RF_COMM_MULTILANE_P9/build/p9_z7010_candidate/project/p9_z7010_candidate.gen/sources_1/bd/p9_ps_system/ip/p9_ps_system_axi_dma_0_0/p9_ps_system_axi_dma_0_0_clocks.xdc] for cell 'p9_ps_system_i/axi_dma_0/U0'
Finished Parsing XDC File [c:/Users/user/Documents/RF_COMM_MULTILANE_P9/build/p9_z7010_candidate/project/p9_z7010_candidate.gen/sources_1/bd/p9_ps_system/ip/p9_ps_system_axi_dma_0_0/p9_ps_system_axi_dma_0_0_clocks.xdc] for cell 'p9_ps_system_i/axi_dma_0/U0'
Parsing XDC File [c:/Users/user/Documents/RF_COMM_MULTILANE_P9/build/p9_z7010_candidate/project/p9_z7010_candidate.gen/sources_1/bd/p9_ps_system/ip/p9_ps_system_p9_axil_clock_converter_0/p9_ps_system_p9_axil_clock_converter_0_clocks.xdc] for cell 'p9_ps_system_i/p9_axil_clock_converter/inst'
WARNING: [Vivado_Tcl 4-921] Waiver ID 'CDC-10' -to list should not be empty. [c:/Users/user/Documents/RF_COMM_MULTILANE_P9/build/p9_z7010_candidate/project/p9_z7010_candidate.gen/sources_1/bd/p9_ps_system/ip/p9_ps_system_p9_axil_clock_converter_0/p9_ps_system_p9_axil_clock_converter_0_clocks.xdc:7]
WARNING: [Vivado_Tcl 4-921] Waiver ID 'CDC-11' -to list should not be empty. [c:/Users/user/Documents/RF_COMM_MULTILANE_P9/build/p9_z7010_candidate/project/p9_z7010_candidate.gen/sources_1/bd/p9_ps_system/ip/p9_ps_system_p9_axil_clock_converter_0/p9_ps_system_p9_axil_clock_converter_0_clocks.xdc:10]
WARNING: [Vivado_Tcl 4-921] Waiver ID 'CDC-15' -to list should not be empty. [c:/Users/user/Documents/RF_COMM_MULTILANE_P9/build/p9_z7010_candidate/project/p9_z7010_candidate.gen/sources_1/bd/p9_ps_system/ip/p9_ps_system_p9_axil_clock_converter_0/p9_ps_system_p9_axil_clock_converter_0_clocks.xdc:13]
WARNING: [Vivado_Tcl 4-939] Waiver ID 'LUTAR-1' object list should not be empty (perhaps an invalid wildcard was used or only unsupported objects). [c:/Users/user/Documents/RF_COMM_MULTILANE_P9/build/p9_z7010_candidate/project/p9_z7010_candidate.gen/sources_1/bd/p9_ps_system/ip/p9_ps_system_p9_axil_clock_converter_0/p9_ps_system_p9_axil_clock_converter_0_clocks.xdc:17]
Finished Parsing XDC File [c:/Users/user/Documents/RF_COMM_MULTILANE_P9/build/p9_z7010_candidate/project/p9_z7010_candidate.gen/sources_1/bd/p9_ps_system/ip/p9_ps_system_p9_axil_clock_converter_0/p9_ps_system_p9_axil_clock_converter_0_clocks.xdc] for cell 'p9_ps_system_i/p9_axil_clock_converter/inst'
Parsing XDC File [c:/Users/user/Documents/RF_COMM_MULTILANE_P9/build/p9_z7010_candidate/project/p9_z7010_candidate.gen/sources_1/bd/p9_ps_system/ip/p9_ps_system_auto_us_0/p9_ps_system_auto_us_0_clocks.xdc] for cell 'p9_ps_system_i/hp0_interconnect/s00_couplers/auto_us/inst'
Finished Parsing XDC File [c:/Users/user/Documents/RF_COMM_MULTILANE_P9/build/p9_z7010_candidate/project/p9_z7010_candidate.gen/sources_1/bd/p9_ps_system/ip/p9_ps_system_auto_us_0/p9_ps_system_auto_us_0_clocks.xdc] for cell 'p9_ps_system_i/hp0_interconnect/s00_couplers/auto_us/inst'
Parsing XDC File [c:/Users/user/Documents/RF_COMM_MULTILANE_P9/build/p9_z7010_candidate/project/p9_z7010_candidate.gen/sources_1/bd/p9_ps_system/ip/p9_ps_system_auto_us_1/p9_ps_system_auto_us_1_clocks.xdc] for cell 'p9_ps_system_i/hp0_interconnect/s01_couplers/auto_us/inst'
Finished Parsing XDC File [c:/Users/user/Documents/RF_COMM_MULTILANE_P9/build/p9_z7010_candidate/project/p9_z7010_candidate.gen/sources_1/bd/p9_ps_system/ip/p9_ps_system_auto_us_1/p9_ps_system_auto_us_1_clocks.xdc] for cell 'p9_ps_system_i/hp0_interconnect/s01_couplers/auto_us/inst'
Parsing XDC File [c:/Users/user/Documents/RF_COMM_MULTILANE_P9/build/p9_z7010_candidate/project/p9_z7010_candidate.gen/sources_1/bd/p9_ps_system/ip/p9_ps_system_auto_us_2/p9_ps_system_auto_us_2_clocks.xdc] for cell 'p9_ps_system_i/hp0_interconnect/s02_couplers/auto_us/inst'
Finished Parsing XDC File [c:/Users/user/Documents/RF_COMM_MULTILANE_P9/build/p9_z7010_candidate/project/p9_z7010_candidate.gen/sources_1/bd/p9_ps_system/ip/p9_ps_system_auto_us_2/p9_ps_system_auto_us_2_clocks.xdc] for cell 'p9_ps_system_i/hp0_interconnect/s02_couplers/auto_us/inst'
INFO: [Project 1-1714] 38 XPM XDC files have been applied to the design.
INFO: [Opt 31-138] Pushed 0 inverter(s) to 0 load pin(s).
INFO: [Project 1-1687] 2 scoped IP constraints or related sub-commands were skipped due to synthesis logic optimizations usually triggered by constant connectivity or unconnected output pins. To review the skipped constraints and messages, run the command 'set_param netlist.IPMsgFiltering false' before opening the design.
Netlist sorting complete. Time (s): cpu = 00:00:00 ; elapsed = 00:00:00.006 . Memory (MB): peak = 2672.809 ; gain = 0.000
INFO: [Project 1-111] Unisim Transformation Summary:
  A total of 111 instances were transformed.
  RAM32M => RAM32M (RAMD32(x6), RAMS32(x2)): 51 instances
  RAM32X1D => RAM32X1D (RAMD32(x2)): 12 instances
  RAM64M => RAM64M (RAMD64E(x4)): 48 instances

28 Infos, 6 Warnings, 0 Critical Warnings and 0 Errors encountered.
link_design completed successfully
link_design: Time (s): cpu = 00:00:11 ; elapsed = 00:00:14 . Memory (MB): peak = 2672.809 ; gain = 1222.809
Command: opt_design
Attempting to get a license for feature 'Implementation' and/or device 'xc7z010'
INFO: [Common 17-349] Got license for feature 'Implementation' and/or device 'xc7z010'
Running DRC as a precondition to command opt_design

Starting DRC Task
INFO: [DRC 23-27] Running DRC with 2 threads
INFO: [Project 1-461] DRC finished with 0 Errors
INFO: [Project 1-462] Please refer to the DRC report (report_drc) for more information.

Time (s): cpu = 00:00:01 ; elapsed = 00:00:00.507 . Memory (MB): peak = 2672.809 ; gain = 0.000

Starting Cache Timing Information Task
INFO: [Timing 38-35] Done setting XDC timing constraints.
Ending Cache Timing Information Task | Checksum: c8999ad6

Time (s): cpu = 00:00:00 ; elapsed = 00:00:00.432 . Memory (MB): peak = 2672.809 ; gain = 0.000

Starting Logic Optimization Task

Phase 1 Retarget
INFO: [Opt 31-1566] Pulled 22 inverters resulting in an inversion of 242 pins
INFO: [Opt 31-138] Pushed 4 inverter(s) to 12 load pin(s).
INFO: [Opt 31-49] Retargeted 0 cell(s).
Phase 1 Retarget | Checksum: 9c069b38

Time (s): cpu = 00:00:00 ; elapsed = 00:00:00.601 . Memory (MB): peak = 3006.855 ; gain = 18.707
INFO: [Opt 31-389] Phase Retarget created 43 cells and removed 140 cells
INFO: [Opt 31-1021] In phase Retarget, 27 netlist objects are constrained preventing optimization. Please run opt_design with -debug_log to get more detail. 

Phase 2 Constant propagation
INFO: [Opt 31-138] Pushed 7 inverter(s) to 14 load pin(s).
Phase 2 Constant propagation | Checksum: 67e3ceb7

Time (s): cpu = 00:00:01 ; elapsed = 00:00:00.839 . Memory (MB): peak = 3006.855 ; gain = 18.707
INFO: [Opt 31-389] Phase Constant propagation created 526 cells and removed 1379 cells
INFO: [Opt 31-1021] In phase Constant propagation, 29 netlist objects are constrained preventing optimization. Please run opt_design with -debug_log to get more detail. 

Phase 3 Sweep
Phase 3 Sweep | Checksum: 4c71f71d

Time (s): cpu = 00:00:01 ; elapsed = 00:00:01 . Memory (MB): peak = 3006.855 ; gain = 18.707
INFO: [Opt 31-389] Phase Sweep created 0 cells and removed 368 cells
INFO: [Opt 31-1021] In phase Sweep, 99 netlist objects are constrained preventing optimization. Please run opt_design with -debug_log to get more detail. 

Phase 4 BUFG optimization
Phase 4 BUFG optimization | Checksum: 4c71f71d

Time (s): cpu = 00:00:01 ; elapsed = 00:00:01 . Memory (MB): peak = 3006.855 ; gain = 18.707
INFO: [Opt 31-662] Phase BUFG optimization created 0 cells of which 0 are BUFGs and removed 0 cells.

Phase 5 Shift Register Optimization
INFO: [Opt 31-1064] SRL Remap converted 0 SRLs to 0 registers and converted 0 registers of register chains to 0 SRLs
Phase 5 Shift Register Optimization | Checksum: 11ef18aec

Time (s): cpu = 00:00:02 ; elapsed = 00:00:02 . Memory (MB): peak = 3006.855 ; gain = 18.707
INFO: [Opt 31-389] Phase Shift Register Optimization created 0 cells and removed 0 cells

Phase 6 Post Processing Netlist
INFO: [Opt 31-1566] Pulled 1 inverters resulting in an inversion of 2 pins
Phase 6 Post Processing Netlist | Checksum: 1fff09b85

Time (s): cpu = 00:00:02 ; elapsed = 00:00:02 . Memory (MB): peak = 3006.855 ; gain = 18.707
INFO: [Opt 31-389] Phase Post Processing Netlist created 0 cells and removed 1 cells
INFO: [Opt 31-1021] In phase Post Processing Netlist, 33 netlist objects are constrained preventing optimization. Please run opt_design with -debug_log to get more detail. 
Opt_design Change Summary
=========================


-------------------------------------------------------------------------------------------------------------------------
|  Phase                        |  #Cells created  |  #Cells Removed  |  #Constrained objects preventing optimizations  |
-------------------------------------------------------------------------------------------------------------------------
|  Retarget                     |              43  |             140  |                                             27  |
|  Constant propagation         |             526  |            1379  |                                             29  |
|  Sweep                        |               0  |             368  |                                             99  |
|  BUFG optimization            |               0  |               0  |                                              0  |
|  Shift Register Optimization  |               0  |               0  |                                              0  |
|  Post Processing Netlist      |               0  |               1  |                                             33  |
-------------------------------------------------------------------------------------------------------------------------



Starting Connectivity Check Task

Time (s): cpu = 00:00:00 ; elapsed = 00:00:00.028 . Memory (MB): peak = 3006.855 ; gain = 0.000
Ending Logic Optimization Task | Checksum: 92952766

Time (s): cpu = 00:00:02 ; elapsed = 00:00:02 . Memory (MB): peak = 3006.855 ; gain = 18.707

Starting Power Optimization Task
INFO: [Pwropt 34-132] Skipping clock gating for clocks with a period < 2.00 ns.
INFO: [Pwropt 34-9] Applying IDT optimizations ...
INFO: [Pwropt 34-10] Applying ODC optimizations ...
INFO: [Timing 38-35] Done setting XDC timing constraints.
Running Vector-less Activity Propagation...

Finished Running Vector-less Activity Propagation


Starting PowerOpt Patch Enables Task
INFO: [Pwropt 34-162] WRITE_MODE attribute of 0 BRAM(s) out of a total of 18 has been updated to save power. Run report_power_opt to get a complete listing of the BRAMs updated.
INFO: [Pwropt 34-201] Structural ODC has moved 0 WE to EN ports
Number of BRAM Ports augmented: 8 newly gated: 8 Total Ports: 36
Ending PowerOpt Patch Enables Task | Checksum: 10b6f43b7

Time (s): cpu = 00:00:00 ; elapsed = 00:00:00.100 . Memory (MB): peak = 3279.359 ; gain = 0.000
Ending Power Optimization Task | Checksum: 10b6f43b7

Time (s): cpu = 00:00:05 ; elapsed = 00:00:03 . Memory (MB): peak = 3279.359 ; gain = 272.504

Starting Final Cleanup Task

Starting Logic Optimization Task
INFO: [Timing 38-35] Done setting XDC timing constraints.
Ending Logic Optimization Task | Checksum: fc61ceac

Time (s): cpu = 00:00:02 ; elapsed = 00:00:01 . Memory (MB): peak = 3279.359 ; gain = 0.000
Ending Final Cleanup Task | Checksum: fc61ceac

Time (s): cpu = 00:00:03 ; elapsed = 00:00:03 . Memory (MB): peak = 3279.359 ; gain = 0.000

Starting Netlist Obfuscation Task
Netlist sorting complete. Time (s): cpu = 00:00:00 ; elapsed = 00:00:00.004 . Memory (MB): peak = 3279.359 ; gain = 0.000
Ending Netlist Obfuscation Task | Checksum: fc61ceac

Time (s): cpu = 00:00:00 ; elapsed = 00:00:00.007 . Memory (MB): peak = 3279.359 ; gain = 0.000
INFO: [Common 17-83] Releasing license: Implementation
57 Infos, 6 Warnings, 0 Critical Warnings and 0 Errors encountered.
opt_design completed successfully
opt_design: Time (s): cpu = 00:00:13 ; elapsed = 00:00:09 . Memory (MB): peak = 3279.359 ; gain = 606.551
INFO: [runtcl-4] Executing : report_drc -file p9_ps_system_wrapper_drc_opted.rpt -pb p9_ps_system_wrapper_drc_opted.pb -rpx p9_ps_system_wrapper_drc_opted.rpx
Command: report_drc -file p9_ps_system_wrapper_drc_opted.rpt -pb p9_ps_system_wrapper_drc_opted.pb -rpx p9_ps_system_wrapper_drc_opted.rpx
INFO: [IP_Flow 19-1839] IP Catalog is up to date.
INFO: [DRC 23-27] Running DRC with 2 threads
INFO: [Vivado_Tcl 2-168] The results of DRC are in file C:/Users/user/Documents/RF_COMM_MULTILANE_P9/build/p9_z7010_candidate/project/p9_z7010_candidate.runs/impl_1/p9_ps_system_wrapper_drc_opted.rpt.
report_drc completed successfully
INFO: [Timing 38-35] Done setting XDC timing constraints.
INFO: [Timing 38-480] Writing timing data to binary archive.
Writing XDEF routing.
Writing XDEF routing logical nets.
Writing XDEF routing special nets.
Write XDEF Complete: Time (s): cpu = 00:00:00 ; elapsed = 00:00:00.057 . Memory (MB): peak = 3279.359 ; gain = 0.000
INFO: [Common 17-1381] The checkpoint 'C:/Users/user/Documents/RF_COMM_MULTILANE_P9/build/p9_z7010_candidate/project/p9_z7010_candidate.runs/impl_1/p9_ps_system_wrapper_opt.dcp' has been generated.
Command: place_design
Attempting to get a license for feature 'Implementation' and/or device 'xc7z010'
INFO: [Common 17-349] Got license for feature 'Implementation' and/or device 'xc7z010'
INFO: [DRC 23-27] Running DRC with 2 threads
INFO: [Vivado_Tcl 4-198] DRC finished with 0 Errors
INFO: [Vivado_Tcl 4-199] Please refer to the DRC report (report_drc) for more information.
Running DRC as a precondition to command place_design
INFO: [DRC 23-27] Running DRC with 2 threads
INFO: [Vivado_Tcl 4-198] DRC finished with 0 Errors
INFO: [Vivado_Tcl 4-199] Please refer to the DRC report (report_drc) for more information.

Starting Placer Task
INFO: [Place 30-611] Multithreading enabled for place_design using a maximum of 2 CPUs

Phase 1 Placer Initialization

Phase 1.1 Placer Initialization Netlist Sorting
Netlist sorting complete. Time (s): cpu = 00:00:00 ; elapsed = 00:00:00.005 . Memory (MB): peak = 3279.359 ; gain = 0.000
Phase 1.1 Placer Initialization Netlist Sorting | Checksum: cf4e9ddf

Time (s): cpu = 00:00:00 ; elapsed = 00:00:00.010 . Memory (MB): peak = 3279.359 ; gain = 0.000
Netlist sorting complete. Time (s): cpu = 00:00:00 ; elapsed = 00:00:00.004 . Memory (MB): peak = 3279.359 ; gain = 0.000

Phase 1.2 IO Placement/ Clock Placement/ Build Placer Device
Phase 1.2 IO Placement/ Clock Placement/ Build Placer Device | Checksum: 10c0c09e1

Time (s): cpu = 00:00:01 ; elapsed = 00:00:00.749 . Memory (MB): peak = 3279.359 ; gain = 0.000

Phase 1.3 Build Placer Netlist Model
WARNING: [Place 30-34] Design utilization is very high. Please run report_utilization command to see design utilization.
Phase 1.3 Build Placer Netlist Model | Checksum: 250d719ac

Time (s): cpu = 00:00:05 ; elapsed = 00:00:03 . Memory (MB): peak = 3279.359 ; gain = 0.000

Phase 1.4 Constrain Clocks/Macros
Phase 1.4 Constrain Clocks/Macros | Checksum: 250d719ac

Time (s): cpu = 00:00:05 ; elapsed = 00:00:03 . Memory (MB): peak = 3279.359 ; gain = 0.000
Phase 1 Placer Initialization | Checksum: 250d719ac

Time (s): cpu = 00:00:05 ; elapsed = 00:00:03 . Memory (MB): peak = 3279.359 ; gain = 0.000

Phase 2 Global Placement

Phase 2.1 Floorplanning
Phase 2.1 Floorplanning | Checksum: 1cb44c7dd

Time (s): cpu = 00:00:06 ; elapsed = 00:00:04 . Memory (MB): peak = 3279.359 ; gain = 0.000

Phase 2.2 Update Timing before SLR Path Opt
Phase 2.2 Update Timing before SLR Path Opt | Checksum: 1a699bfe1

Time (s): cpu = 00:00:07 ; elapsed = 00:00:05 . Memory (MB): peak = 3279.359 ; gain = 0.000

Phase 2.3 Post-Processing in Floorplanning
Phase 2.3 Post-Processing in Floorplanning | Checksum: 1a699bfe1

Time (s): cpu = 00:00:07 ; elapsed = 00:00:05 . Memory (MB): peak = 3279.359 ; gain = 0.000

Phase 2.4 Global Placement Core

Phase 2.4.1 UpdateTiming Before Physical Synthesis
Phase 2.4.1 UpdateTiming Before Physical Synthesis | Checksum: 11523fdc2

Time (s): cpu = 00:00:19 ; elapsed = 00:00:11 . Memory (MB): peak = 3279.359 ; gain = 0.000

Phase 2.4.2 Physical Synthesis In Placer
INFO: [Physopt 32-1035] Found 0 LUTNM shape to break, 874 LUT instances to create LUTNM shape
INFO: [Physopt 32-1044] Break lutnm for timing: one critical 0, two critical 0, total 0, new lutff created 0
INFO: [Physopt 32-1138] End 1 Pass. Optimized 349 nets or LUTs. Breaked 0 LUT, combined 349 existing LUTs and moved 0 existing LUT
INFO: [Physopt 32-65] No nets found for high-fanout optimization.
INFO: [Physopt 32-232] Optimized 0 net. Created 0 new instance.
INFO: [Physopt 32-775] End 1 Pass. Optimized 0 net or cell. Created 0 new cell, deleted 0 existing cell and moved 0 existing cell
INFO: [Physopt 32-670] No setup violation found.  DSP Register Optimization was not performed.
INFO: [Physopt 32-670] No setup violation found.  Shift Register to Pipeline Optimization was not performed.
INFO: [Physopt 32-670] No setup violation found.  Shift Register Optimization was not performed.
INFO: [Physopt 32-670] No setup violation found.  BRAM Register Optimization was not performed.
INFO: [Physopt 32-670] No setup violation found.  URAM Register Optimization was not performed.
INFO: [Physopt 32-949] No candidate nets found for dynamic/static region interface net replication
INFO: [Physopt 32-775] End 1 Pass. Optimized 0 net or cell. Created 0 new cell, deleted 0 existing cell and moved 0 existing cell
Netlist sorting complete. Time (s): cpu = 00:00:00 ; elapsed = 00:00:00.006 . Memory (MB): peak = 3279.359 ; gain = 0.000

Summary of Physical Synthesis Optimizations
============================================


-----------------------------------------------------------------------------------------------------------------------------------------------------------
|  Optimization                                     |  Added Cells  |  Removed Cells  |  Optimized Cells/Nets  |  Dont Touch  |  Iterations  |  Elapsed   |
-----------------------------------------------------------------------------------------------------------------------------------------------------------
|  LUT Combining                                    |            0  |            349  |                   349  |           0  |           1  |  00:00:00  |
|  Retime                                           |            0  |              0  |                     0  |           0  |           1  |  00:00:00  |
|  Very High Fanout                                 |            0  |              0  |                     0  |           0  |           1  |  00:00:00  |
|  DSP Register                                     |            0  |              0  |                     0  |           0  |           0  |  00:00:00  |
|  Shift Register to Pipeline                       |            0  |              0  |                     0  |           0  |           0  |  00:00:00  |
|  Shift Register                                   |            0  |              0  |                     0  |           0  |           0  |  00:00:00  |
|  BRAM Register                                    |            0  |              0  |                     0  |           0  |           0  |  00:00:00  |
|  URAM Register                                    |            0  |              0  |                     0  |           0  |           0  |  00:00:00  |
|  Dynamic/Static Region Interface Net Replication  |            0  |              0  |                     0  |           0  |           1  |  00:00:00  |
|  Total                                            |            0  |            349  |                   349  |           0  |           4  |  00:00:00  |
-----------------------------------------------------------------------------------------------------------------------------------------------------------


Phase 2.4.2 Physical Synthesis In Placer | Checksum: 1c10a02c0

Time (s): cpu = 00:00:20 ; elapsed = 00:00:12 . Memory (MB): peak = 3279.359 ; gain = 0.000
Phase 2.4 Global Placement Core | Checksum: 1eac21449

Time (s): cpu = 00:00:21 ; elapsed = 00:00:13 . Memory (MB): peak = 3279.359 ; gain = 0.000
Phase 2 Global Placement | Checksum: 1eac21449

Time (s): cpu = 00:00:21 ; elapsed = 00:00:13 . Memory (MB): peak = 3279.359 ; gain = 0.000

Phase 3 Detail Placement

Phase 3.1 Commit Multi Column Macros
Phase 3.1 Commit Multi Column Macros | Checksum: 1c7321351

Time (s): cpu = 00:00:22 ; elapsed = 00:00:13 . Memory (MB): peak = 3279.359 ; gain = 0.000

Phase 3.2 Commit Most Macros & LUTRAMs
Phase 3.2 Commit Most Macros & LUTRAMs | Checksum: 17546f48f

Time (s): cpu = 00:00:25 ; elapsed = 00:00:15 . Memory (MB): peak = 3279.359 ; gain = 0.000

Phase 3.3 Area Swap Optimization
Phase 3.3 Area Swap Optimization | Checksum: 15e543a9b

Time (s): cpu = 00:00:25 ; elapsed = 00:00:15 . Memory (MB): peak = 3279.359 ; gain = 0.000

Phase 3.4 Pipeline Register Optimization
Phase 3.4 Pipeline Register Optimization | Checksum: fe5efd50

Time (s): cpu = 00:00:25 ; elapsed = 00:00:15 . Memory (MB): peak = 3279.359 ; gain = 0.000

Phase 3.5 Fast Optimization
Phase 3.5 Fast Optimization | Checksum: 11ca4a918

Time (s): cpu = 00:00:27 ; elapsed = 00:00:17 . Memory (MB): peak = 3279.359 ; gain = 0.000

Phase 3.6 Small Shape Detail Placement
Phase 3.6 Small Shape Detail Placement | Checksum: 255609a42

Time (s): cpu = 00:00:47 ; elapsed = 00:00:34 . Memory (MB): peak = 3279.359 ; gain = 0.000

Phase 3.7 Re-assign LUT pins
Phase 3.7 Re-assign LUT pins | Checksum: 1e1b73f51

Time (s): cpu = 00:00:47 ; elapsed = 00:00:35 . Memory (MB): peak = 3279.359 ; gain = 0.000

Phase 3.8 Pipeline Register Optimization
Phase 3.8 Pipeline Register Optimization | Checksum: 2076be637

Time (s): cpu = 00:00:47 ; elapsed = 00:00:35 . Memory (MB): peak = 3279.359 ; gain = 0.000

Phase 3.9 Fast Optimization
Phase 3.9 Fast Optimization | Checksum: 18d18b83d

Time (s): cpu = 00:00:52 ; elapsed = 00:00:38 . Memory (MB): peak = 3279.359 ; gain = 0.000
Phase 3 Detail Placement | Checksum: 18d18b83d

Time (s): cpu = 00:00:52 ; elapsed = 00:00:38 . Memory (MB): peak = 3279.359 ; gain = 0.000

Phase 4 Post Placement Optimization and Clean-Up

Phase 4.1 Post Commit Optimization
INFO: [Timing 38-35] Done setting XDC timing constraints.

Phase 4.1.1 Post Placement Optimization
Post Placement Optimization Initialization | Checksum: c5f6e4f8

Phase 4.1.1.1 BUFG Insertion

Starting Physical Synthesis Task

Phase 1 Physical Synthesis Initialization
INFO: [Physopt 32-721] Multithreading enabled for phys_opt_design using a maximum of 2 CPUs
INFO: [Physopt 32-619] Estimated Timing Summary | WNS=-1.840 | TNS=-187.054 |
Phase 1 Physical Synthesis Initialization | Checksum: b11d60c6

Time (s): cpu = 00:00:01 ; elapsed = 00:00:00.700 . Memory (MB): peak = 3279.359 ; gain = 0.000
INFO: [Place 46-33] Processed net p9_ps_system_i/p9_peripheral_0/inst/impl/u_transport/u_data_plane/u_tx_window/SR[0], BUFG insertion was skipped due to placement/routing conflicts.
INFO: [Place 46-33] Processed net p9_ps_system_i/p9_peripheral_0/inst/impl/u_transport/u_data_plane/u_tx_window/i___28_n_0, BUFG insertion was skipped due to placement/routing conflicts.
INFO: [Place 46-56] BUFG insertion identified 2 candidate nets. Inserted BUFG: 0, Replicated BUFG Driver: 0, Skipped due to Placement/Routing Conflicts: 2, Skipped due to Timing Degradation: 0, Skipped due to netlist editing failed: 0.
Ending Physical Synthesis Task | Checksum: b11d60c6

Time (s): cpu = 00:00:02 ; elapsed = 00:00:01 . Memory (MB): peak = 3279.359 ; gain = 0.000
Phase 4.1.1.1 BUFG Insertion | Checksum: c5f6e4f8

Time (s): cpu = 00:00:58 ; elapsed = 00:00:42 . Memory (MB): peak = 3279.359 ; gain = 0.000

Phase 4.1.1.2 Post Placement Timing Optimization
INFO: [Place 30-746] Post Placement Timing Summary WNS=-0.217. For the most accurate timing information please run report_timing.
Phase 4.1.1.2 Post Placement Timing Optimization | Checksum: e887c0ea

Time (s): cpu = 00:01:12 ; elapsed = 00:00:55 . Memory (MB): peak = 3283.656 ; gain = 4.297

Time (s): cpu = 00:01:12 ; elapsed = 00:00:55 . Memory (MB): peak = 3283.656 ; gain = 4.297
Phase 4.1 Post Commit Optimization | Checksum: e887c0ea

Time (s): cpu = 00:01:12 ; elapsed = 00:00:56 . Memory (MB): peak = 3283.656 ; gain = 4.297

Phase 4.2 Post Placement Cleanup
Phase 4.2 Post Placement Cleanup | Checksum: e887c0ea

Time (s): cpu = 00:01:12 ; elapsed = 00:00:56 . Memory (MB): peak = 3283.656 ; gain = 4.297

Phase 4.3 Placer Reporting

Phase 4.3.1 Print Estimated Congestion
INFO: [Place 30-612] Post-Placement Estimated Congestion 
 ____________________________________________________
|           | Global Congestion | Short Congestion  |
| Direction | Region Size       | Region Size       |
|___________|___________________|___________________|
|      North|                8x8|                8x8|
|___________|___________________|___________________|
|      South|              16x16|                8x8|
|___________|___________________|___________________|
|       East|                4x4|                8x8|
|___________|___________________|___________________|
|       West|                2x2|                4x4|
|___________|___________________|___________________|

Phase 4.3.1 Print Estimated Congestion | Checksum: e887c0ea

Time (s): cpu = 00:01:12 ; elapsed = 00:00:56 . Memory (MB): peak = 3283.656 ; gain = 4.297
Phase 4.3 Placer Reporting | Checksum: e887c0ea

Time (s): cpu = 00:01:12 ; elapsed = 00:00:56 . Memory (MB): peak = 3283.656 ; gain = 4.297

Phase 4.4 Final Placement Cleanup
Netlist sorting complete. Time (s): cpu = 00:00:00 ; elapsed = 00:00:00.010 . Memory (MB): peak = 3283.656 ; gain = 0.000

Time (s): cpu = 00:01:12 ; elapsed = 00:00:56 . Memory (MB): peak = 3283.656 ; gain = 4.297
Phase 4 Post Placement Optimization and Clean-Up | Checksum: 1b7271a07

Time (s): cpu = 00:01:12 ; elapsed = 00:00:56 . Memory (MB): peak = 3283.656 ; gain = 4.297
Ending Placer Task | Checksum: 18fdc68d6

Time (s): cpu = 00:01:13 ; elapsed = 00:00:56 . Memory (MB): peak = 3283.656 ; gain = 4.297
INFO: [Common 17-83] Releasing license: Implementation
94 Infos, 7 Warnings, 0 Critical Warnings and 0 Errors encountered.
place_design completed successfully
place_design: Time (s): cpu = 00:01:14 ; elapsed = 00:00:57 . Memory (MB): peak = 3283.656 ; gain = 4.297
INFO: [runtcl-4] Executing : report_io -file p9_ps_system_wrapper_io_placed.rpt
report_io: Time (s): cpu = 00:00:00 ; elapsed = 00:00:00.038 . Memory (MB): peak = 3283.656 ; gain = 0.000
INFO: [runtcl-4] Executing : report_utilization -file p9_ps_system_wrapper_utilization_placed.rpt -pb p9_ps_system_wrapper_utilization_placed.pb
INFO: [runtcl-4] Executing : report_control_sets -verbose -file p9_ps_system_wrapper_control_sets_placed.rpt
report_control_sets: Time (s): cpu = 00:00:00 ; elapsed = 00:00:00.041 . Memory (MB): peak = 3283.656 ; gain = 0.000
INFO: [Timing 38-480] Writing timing data to binary archive.
Writing XDEF routing.
Writing XDEF routing logical nets.
Writing XDEF routing special nets.
Write XDEF Complete: Time (s): cpu = 00:00:04 ; elapsed = 00:00:01 . Memory (MB): peak = 3299.809 ; gain = 16.152
INFO: [Common 17-1381] The checkpoint 'C:/Users/user/Documents/RF_COMM_MULTILANE_P9/build/p9_z7010_candidate/project/p9_z7010_candidate.runs/impl_1/p9_ps_system_wrapper_placed.dcp' has been generated.
Command: phys_opt_design -directive AggressiveExplore
Attempting to get a license for feature 'Implementation' and/or device 'xc7z010'
INFO: [Common 17-349] Got license for feature 'Implementation' and/or device 'xc7z010'
INFO: [Vivado_Tcl 4-137] Directive used for phys_opt_design is: AggressiveExplore

Starting Initial Update Timing Task

Time (s): cpu = 00:00:03 ; elapsed = 00:00:02 . Memory (MB): peak = 3344.574 ; gain = 44.766
INFO: [Vivado_Tcl 4-1435] PhysOpt_Tcl_Interface Runtime Before Starting Physical Synthesis Task | CPU: 3.00s |  WALL: 2.23s
Netlist sorting complete. Time (s): cpu = 00:00:00 ; elapsed = 00:00:00.005 . Memory (MB): peak = 3344.672 ; gain = 0.098

Starting Physical Synthesis Task

Phase 1 Physical Synthesis Initialization
INFO: [Physopt 32-721] Multithreading enabled for phys_opt_design using a maximum of 2 CPUs
INFO: [Physopt 32-619] Estimated Timing Summary | WNS=-0.217 | TNS=-0.708 |
Phase 1 Physical Synthesis Initialization | Checksum: 1a36126b6

Time (s): cpu = 00:00:02 ; elapsed = 00:00:01 . Memory (MB): peak = 3362.078 ; gain = 17.406

Phase 2 SLR Crossing Optimization
Phase 2 SLR Crossing Optimization | Checksum: 1a36126b6

Time (s): cpu = 00:00:02 ; elapsed = 00:00:01 . Memory (MB): peak = 3362.078 ; gain = 17.406
INFO: [Physopt 32-619] Estimated Timing Summary | WNS=-0.217 | TNS=-0.708 |

Phase 3 Fanout Optimization
INFO: [Physopt 32-64] No nets found for fanout-optimization.
INFO: [Physopt 32-232] Optimized 0 net. Created 0 new instance.
INFO: [Physopt 32-775] End 1 Pass. Optimized 0 net or cell. Created 0 new cell, deleted 0 existing cell and moved 0 existing cell
Phase 3 Fanout Optimization | Checksum: 1a36126b6

Time (s): cpu = 00:00:03 ; elapsed = 00:00:01 . Memory (MB): peak = 3362.078 ; gain = 17.406

Phase 4 Single Cell Placement Optimization
INFO: [Physopt 32-660] Identified 147 candidate nets for placement-based optimization.
INFO: [Physopt 32-663] Processed net p9_ps_system_i/hp0_interconnect/xbar/inst/gen_samd.crossbar_samd/gen_master_slots[0].gen_mi_write.wdata_mux_w/gen_wmux.wmux_aw_fifo/m_select_enc_2[1].  Re-placed instance p9_ps_system_i/hp0_interconnect/xbar/inst/gen_samd.crossbar_samd/gen_master_slots[0].gen_mi_write.wdata_mux_w/gen_wmux.wmux_aw_fifo/storage_data1_reg[1]
INFO: [Physopt 32-662] Processed net p9_ps_system_i/axi_dma_0/U0/GEN_SG_ENGINE.I_SG_ENGINE/I_SG_AXI_DATAMOVER/GEN_S2MM_BASIC.I_S2MM_BASIC_WRAPPER/I_WR_DATA_CNTL/sig_dqual_reg_full_i_3_n_0.  Did not re-place instance p9_ps_system_i/axi_dma_0/U0/GEN_SG_ENGINE.I_SG_ENGINE/I_SG_AXI_DATAMOVER/GEN_S2MM_BASIC.I_S2MM_BASIC_WRAPPER/I_WR_DATA_CNTL/sig_dqual_reg_full_i_3
INFO: [Physopt 32-662] Processed net p9_ps_system_i/hp0_interconnect/xbar/inst/gen_samd.crossbar_samd/gen_slave_slots[2].gen_si_write.wdata_router_w/wrouter_aw_fifo/s_axi_wready[0].  Did not re-place instance p9_ps_system_i/hp0_interconnect/xbar/inst/gen_samd.crossbar_samd/gen_slave_slots[2].gen_si_write.wdata_router_w/wrouter_aw_fifo/s_axi_wready[2]_INST_0
INFO: [Physopt 32-662] Processed net p9_ps_system_i/axi_dma_0/U0/GEN_SG_ENGINE.I_SG_ENGINE/I_SG_AXI_DATAMOVER/GEN_S2MM_BASIC.I_S2MM_BASIC_WRAPPER/I_WR_DATA_CNTL/sig_clr_dqual_reg.  Did not re-place instance p9_ps_system_i/axi_dma_0/U0/GEN_SG_ENGINE.I_SG_ENGINE/I_SG_AXI_DATAMOVER/GEN_S2MM_BASIC.I_S2MM_BASIC_WRAPPER/I_WR_DATA_CNTL/sig_dqual_reg_full_i_1
INFO: [Physopt 32-662] Processed net p9_ps_system_i/hp0_interconnect/m00_couplers/auto_pc/inst/gen_axi4_axi3.axi3_conv_inst/USE_WRITE.write_addr_inst/USE_BURSTS.cmd_queue/inst/s_axi_wvalid_0.  Did not re-place instance p9_ps_system_i/hp0_interconnect/m00_couplers/auto_pc/inst/gen_axi4_axi3.axi3_conv_inst/USE_WRITE.write_addr_inst/USE_BURSTS.cmd_queue/inst/s_axi_wready_INST_0
INFO: [Physopt 32-663] Processed net p9_ps_system_i/axi_dma_0/U0/GEN_SG_ENGINE.I_SG_ENGINE/I_SG_AXI_DATAMOVER/GEN_S2MM_BASIC.I_S2MM_BASIC_WRAPPER/I_WR_DATA_CNTL/sig_dqual_reg_full.  Re-placed instance p9_ps_system_i/axi_dma_0/U0/GEN_SG_ENGINE.I_SG_ENGINE/I_SG_AXI_DATAMOVER/GEN_S2MM_BASIC.I_S2MM_BASIC_WRAPPER/I_WR_DATA_CNTL/sig_dqual_reg_full_reg
INFO: [Physopt 32-662] Processed net p9_ps_system_i/hp0_interconnect/xbar/inst/gen_samd.crossbar_samd/gen_master_slots[0].gen_mi_write.wdata_mux_w/gen_wmux.wmux_aw_fifo/m_axi_wready[0]_0.  Did not re-place instance p9_ps_system_i/hp0_interconnect/xbar/inst/gen_samd.crossbar_samd/gen_master_slots[0].gen_mi_write.wdata_mux_w/gen_wmux.wmux_aw_fifo/s_axi_wready[2]_INST_0_i_1
INFO: [Physopt 32-662] Processed net p9_ps_system_i/axi_dma_0/U0/GEN_SG_ENGINE.I_SG_ENGINE/I_SG_AXI_DATAMOVER/GEN_S2MM_BASIC.I_S2MM_BASIC_WRAPPER/I_WR_DATA_CNTL/sig_dbeat_cntr[7]_i_4_n_0.  Did not re-place instance p9_ps_system_i/axi_dma_0/U0/GEN_SG_ENGINE.I_SG_ENGINE/I_SG_AXI_DATAMOVER/GEN_S2MM_BASIC.I_S2MM_BASIC_WRAPPER/I_WR_DATA_CNTL/sig_dbeat_cntr[7]_i_4
INFO: [Physopt 32-662] Processed net p9_ps_system_i/hp0_interconnect/xbar/inst/gen_samd.crossbar_samd/gen_master_slots[0].gen_mi_write.wdata_mux_w/gen_wmux.wmux_aw_fifo/gen_srls[0].gen_rep[1].srl_nx1/s_axi_wvalid_1_sn_1.  Did not re-place instance p9_ps_system_i/hp0_interconnect/xbar/inst/gen_samd.crossbar_samd/gen_master_slots[0].gen_mi_write.wdata_mux_w/gen_wmux.wmux_aw_fifo/gen_srls[0].gen_rep[1].srl_nx1/m_axi_wvalid[0]_INST_0
INFO: [Physopt 32-663] Processed net p9_ps_system_i/axi_dma_0/U0/GEN_SG_ENGINE.I_SG_ENGINE/I_SG_AXI_DATAMOVER/GEN_S2MM_BASIC.I_S2MM_BASIC_WRAPPER/I_WR_DATA_CNTL/sig_next_calc_error_reg.  Re-placed instance p9_ps_system_i/axi_dma_0/U0/GEN_SG_ENGINE.I_SG_ENGINE/I_SG_AXI_DATAMOVER/GEN_S2MM_BASIC.I_S2MM_BASIC_WRAPPER/I_WR_DATA_CNTL/sig_next_calc_error_reg_reg
INFO: [Physopt 32-663] Processed net p9_ps_system_i/hp0_interconnect/s02_couplers/auto_us/inst/gen_upsizer.gen_full_upsizer.axi_upsizer_inst/USE_WRITE.write_addr_inst/GEN_CMD_QUEUE.cmd_queue/s_axi_wready.  Re-placed instance p9_ps_system_i/hp0_interconnect/s02_couplers/auto_us/inst/gen_upsizer.gen_full_upsizer.axi_upsizer_inst/USE_WRITE.write_addr_inst/GEN_CMD_QUEUE.cmd_queue/s_axi_wready_INST_0
INFO: [Physopt 32-662] Processed net p9_ps_system_i/hp0_interconnect/xbar/inst/gen_samd.crossbar_samd/gen_master_slots[0].gen_mi_write.wdata_mux_w/gen_wmux.wmux_aw_fifo/gen_srls[0].gen_rep[1].srl_nx1/m_axi_wvalid[0]_INST_0_i_2_n_0.  Did not re-place instance p9_ps_system_i/hp0_interconnect/xbar/inst/gen_samd.crossbar_samd/gen_master_slots[0].gen_mi_write.wdata_mux_w/gen_wmux.wmux_aw_fifo/gen_srls[0].gen_rep[1].srl_nx1/m_axi_wvalid[0]_INST_0_i_2
INFO: [Physopt 32-663] Processed net p9_ps_system_i/axi_dma_0/U0/GEN_SG_ENGINE.I_SG_ENGINE/I_SG_AXI_DATAMOVER/GEN_S2MM_BASIC.I_S2MM_BASIC_WRAPPER/I_WR_DATA_CNTL/sig_dqual_reg_empty.  Re-placed instance p9_ps_system_i/axi_dma_0/U0/GEN_SG_ENGINE.I_SG_ENGINE/I_SG_AXI_DATAMOVER/GEN_S2MM_BASIC.I_S2MM_BASIC_WRAPPER/I_WR_DATA_CNTL/sig_dqual_reg_empty_reg
INFO: [Physopt 32-662] Processed net p9_ps_system_i/hp0_interconnect/xbar/inst/gen_samd.crossbar_samd/gen_master_slots[0].gen_mi_write.wdata_mux_w/gen_wmux.wmux_aw_fifo/gen_srls[0].gen_rep[1].srl_nx1/m_axi_wvalid[0]_INST_0_i_1_n_0.  Did not re-place instance p9_ps_system_i/hp0_interconnect/xbar/inst/gen_samd.crossbar_samd/gen_master_slots[0].gen_mi_write.wdata_mux_w/gen_wmux.wmux_aw_fifo/gen_srls[0].gen_rep[1].srl_nx1/m_axi_wvalid[0]_INST_0_i_1
INFO: [Physopt 32-662] Processed net p9_ps_system_i/hp0_interconnect/xbar/inst/gen_samd.crossbar_samd/gen_master_slots[0].gen_mi_write.wdata_mux_w/gen_wmux.wmux_aw_fifo/m_avalid_1.  Did not re-place instance p9_ps_system_i/hp0_interconnect/xbar/inst/gen_samd.crossbar_samd/gen_master_slots[0].gen_mi_write.wdata_mux_w/gen_wmux.wmux_aw_fifo/m_valid_i_reg
INFO: [Physopt 32-662] Processed net p9_ps_system_i/hp0_interconnect/s02_couplers/auto_us/inst/gen_upsizer.gen_full_upsizer.axi_upsizer_inst/USE_WRITE.write_addr_inst/GEN_CMD_QUEUE.cmd_queue/WORD_LANE[1].USE_ALWAYS_PACKER.BYTE_LANE[0].USE_RTL_DATA.wstrb_wrap_buffer_q_reg[4][0].  Did not re-place instance p9_ps_system_i/hp0_interconnect/s02_couplers/auto_us/inst/gen_upsizer.gen_full_upsizer.axi_upsizer_inst/USE_WRITE.write_addr_inst/GEN_CMD_QUEUE.cmd_queue/WORD_LANE[1].USE_ALWAYS_PACKER.BYTE_LANE[0].USE_RTL_DATA.USE_REGISTER.M_AXI_WDATA_I[39]_i_1
INFO: [Physopt 32-662] Processed net p9_ps_system_i/hp0_interconnect/s02_couplers/auto_us/inst/gen_upsizer.gen_full_upsizer.axi_upsizer_inst/USE_WRITE.gen_non_fifo_w_upsizer.write_data_inst/m_axi_wready_0.  Did not re-place instance p9_ps_system_i/hp0_interconnect/s02_couplers/auto_us/inst/gen_upsizer.gen_full_upsizer.axi_upsizer_inst/USE_WRITE.gen_non_fifo_w_upsizer.write_data_inst/USE_FF_OUT.USE_RTL_OUTPUT_PIPELINE.M_MESG_Q[29]_i_2
INFO: [Physopt 32-662] Processed net p9_ps_system_i/hp0_interconnect/s02_couplers/auto_us/inst/gen_upsizer.gen_full_upsizer.axi_upsizer_inst/USE_WRITE.write_addr_inst/GEN_CMD_QUEUE.cmd_queue/WORD_LANE[1].USE_ALWAYS_PACKER.BYTE_LANE[0].USE_RTL_DATA.USE_REGISTER.M_AXI_WDATA_I[39]_i_3_n_0.  Did not re-place instance p9_ps_system_i/hp0_interconnect/s02_couplers/auto_us/inst/gen_upsizer.gen_full_upsizer.axi_upsizer_inst/USE_WRITE.write_addr_inst/GEN_CMD_QUEUE.cmd_queue/WORD_LANE[1].USE_ALWAYS_PACKER.BYTE_LANE[0].USE_RTL_DATA.USE_REGISTER.M_AXI_WDATA_I[39]_i_3
INFO: [Physopt 32-663] Processed net p9_ps_system_i/hp0_interconnect/s02_couplers/auto_us/inst/gen_upsizer.gen_full_upsizer.axi_upsizer_inst/USE_WRITE.gen_non_fifo_w_upsizer.write_data_inst/m_axi_wdata[34].  Re-placed instance p9_ps_system_i/hp0_interconnect/s02_couplers/auto_us/inst/gen_upsizer.gen_full_upsizer.axi_upsizer_inst/USE_WRITE.gen_non_fifo_w_upsizer.write_data_inst/WORD_LANE[1].USE_ALWAYS_PACKER.BYTE_LANE[0].USE_RTL_DATA.USE_REGISTER.M_AXI_WDATA_I_reg[34]
INFO: [Physopt 32-663] Processed net p9_ps_system_i/hp0_interconnect/s02_couplers/auto_us/inst/gen_upsizer.gen_full_upsizer.axi_upsizer_inst/USE_WRITE.gen_non_fifo_w_upsizer.write_data_inst/m_axi_wdata[35].  Re-placed instance p9_ps_system_i/hp0_interconnect/s02_couplers/auto_us/inst/gen_upsizer.gen_full_upsizer.axi_upsizer_inst/USE_WRITE.gen_non_fifo_w_upsizer.write_data_inst/WORD_LANE[1].USE_ALWAYS_PACKER.BYTE_LANE[0].USE_RTL_DATA.USE_REGISTER.M_AXI_WDATA_I_reg[35]
INFO: [Physopt 32-663] Processed net p9_ps_system_i/hp0_interconnect/s02_couplers/auto_us/inst/gen_upsizer.gen_full_upsizer.axi_upsizer_inst/USE_WRITE.gen_non_fifo_w_upsizer.write_data_inst/m_axi_wdata[37].  Re-placed instance p9_ps_system_i/hp0_interconnect/s02_couplers/auto_us/inst/gen_upsizer.gen_full_upsizer.axi_upsizer_inst/USE_WRITE.gen_non_fifo_w_upsizer.write_data_inst/WORD_LANE[1].USE_ALWAYS_PACKER.BYTE_LANE[0].USE_RTL_DATA.USE_REGISTER.M_AXI_WDATA_I_reg[37]
INFO: [Physopt 32-663] Processed net p9_ps_system_i/hp0_interconnect/s02_couplers/auto_us/inst/gen_upsizer.gen_full_upsizer.axi_upsizer_inst/USE_WRITE.gen_non_fifo_w_upsizer.write_data_inst/m_axi_wdata[38].  Re-placed instance p9_ps_system_i/hp0_interconnect/s02_couplers/auto_us/inst/gen_upsizer.gen_full_upsizer.axi_upsizer_inst/USE_WRITE.gen_non_fifo_w_upsizer.write_data_inst/WORD_LANE[1].USE_ALWAYS_PACKER.BYTE_LANE[0].USE_RTL_DATA.USE_REGISTER.M_AXI_WDATA_I_reg[38]
INFO: [Physopt 32-662] Processed net p9_ps_system_i/hp0_interconnect/xbar/inst/gen_samd.crossbar_samd/gen_master_slots[0].gen_mi_write.wdata_mux_w/gen_wmux.wmux_aw_fifo/m_select_enc_2[0].  Did not re-place instance p9_ps_system_i/hp0_interconnect/xbar/inst/gen_samd.crossbar_samd/gen_master_slots[0].gen_mi_write.wdata_mux_w/gen_wmux.wmux_aw_fifo/storage_data1_reg[0]
INFO: [Physopt 32-662] Processed net p9_ps_system_i/hp0_interconnect/s01_couplers/auto_us/inst/gen_upsizer.gen_full_upsizer.axi_upsizer_inst/USE_WRITE.write_addr_inst/GEN_CMD_QUEUE.cmd_queue/M_READY_I.  Did not re-place instance p9_ps_system_i/hp0_interconnect/s01_couplers/auto_us/inst/gen_upsizer.gen_full_upsizer.axi_upsizer_inst/USE_WRITE.write_addr_inst/GEN_CMD_QUEUE.cmd_queue/USE_FF_OUT.USE_RTL_OUTPUT_PIPELINE.M_MESG_Q[29]_i_1
INFO: [Physopt 32-662] Processed net p9_ps_system_i/hp0_interconnect/s01_couplers/auto_us/inst/gen_upsizer.gen_full_upsizer.axi_upsizer_inst/USE_WRITE.write_addr_inst/GEN_CMD_QUEUE.cmd_queue/USE_RTL_ADDR.addr_q.  Did not re-place instance p9_ps_system_i/hp0_interconnect/s01_couplers/auto_us/inst/gen_upsizer.gen_full_upsizer.axi_upsizer_inst/USE_WRITE.write_addr_inst/GEN_CMD_QUEUE.cmd_queue/USE_RTL_ADDR.addr_q[4]_i_1
INFO: [Physopt 32-662] Processed net p9_ps_system_i/hp0_interconnect/xbar/inst/gen_samd.crossbar_samd/gen_slave_slots[1].gen_si_write.wdata_router_w/wrouter_aw_fifo/s_axi_wready[0].  Did not re-place instance p9_ps_system_i/hp0_interconnect/xbar/inst/gen_samd.crossbar_samd/gen_slave_slots[1].gen_si_write.wdata_router_w/wrouter_aw_fifo/s_axi_wready[1]_INST_0
INFO: [Physopt 32-662] Processed net p9_ps_system_i/hp0_interconnect/xbar/inst/gen_samd.crossbar_samd/gen_master_slots[0].gen_mi_write.wdata_mux_w/gen_wmux.wmux_aw_fifo/m_axi_wready_0_sn_1.  Did not re-place instance p9_ps_system_i/hp0_interconnect/xbar/inst/gen_samd.crossbar_samd/gen_master_slots[0].gen_mi_write.wdata_mux_w/gen_wmux.wmux_aw_fifo/s_axi_wready[1]_INST_0_i_1
INFO: [Physopt 32-662] Processed net p9_ps_system_i/hp0_interconnect/s01_couplers/auto_us/inst/gen_upsizer.gen_full_upsizer.axi_upsizer_inst/USE_WRITE.write_addr_inst/GEN_CMD_QUEUE.cmd_queue/m_axi_wready_0.  Did not re-place instance p9_ps_system_i/hp0_interconnect/s01_couplers/auto_us/inst/gen_upsizer.gen_full_upsizer.axi_upsizer_inst/USE_WRITE.write_addr_inst/GEN_CMD_QUEUE.cmd_queue/USE_FF_OUT.USE_RTL_OUTPUT_PIPELINE.M_MESG_Q[29]_i_2
INFO: [Physopt 32-662] Processed net p9_ps_system_i/hp0_interconnect/s01_couplers/auto_us/inst/gen_upsizer.gen_full_upsizer.axi_upsizer_inst/USE_WRITE.gen_non_fifo_w_upsizer.write_data_inst/m_axi_wready_0.  Did not re-place instance p9_ps_system_i/hp0_interconnect/s01_couplers/auto_us/inst/gen_upsizer.gen_full_upsizer.axi_upsizer_inst/USE_WRITE.gen_non_fifo_w_upsizer.write_data_inst/USE_FF_OUT.USE_RTL_OUTPUT_PIPELINE.M_MESG_Q[29]_i_3
INFO: [Physopt 32-662] Processed net p9_ps_system_i/hp0_interconnect/s01_couplers/auto_us/inst/gen_upsizer.gen_full_upsizer.axi_upsizer_inst/USE_WRITE.write_addr_inst/GEN_CMD_QUEUE.cmd_queue/USE_RTL_ADDR.addr_q_reg[1].  Did not re-place instance p9_ps_system_i/hp0_interconnect/s01_couplers/auto_us/inst/gen_upsizer.gen_full_upsizer.axi_upsizer_inst/USE_WRITE.write_addr_inst/GEN_CMD_QUEUE.cmd_queue/USE_RTL_ADDR.addr_q_reg[1]
INFO: [Physopt 32-663] Processed net p9_ps_system_i/hp0_interconnect/s01_couplers/auto_us/inst/gen_upsizer.gen_full_upsizer.axi_upsizer_inst/USE_WRITE.write_addr_inst/GEN_CMD_QUEUE.cmd_queue/USE_RTL_ADDR.addr_q_reg[4].  Re-placed instance p9_ps_system_i/hp0_interconnect/s01_couplers/auto_us/inst/gen_upsizer.gen_full_upsizer.axi_upsizer_inst/USE_WRITE.write_addr_inst/GEN_CMD_QUEUE.cmd_queue/USE_RTL_ADDR.addr_q_reg[4]
INFO: [Physopt 32-662] Processed net p9_ps_system_i/hp0_interconnect/s01_couplers/auto_us/inst/gen_upsizer.gen_full_upsizer.axi_upsizer_inst/USE_WRITE.write_addr_inst/GEN_CMD_QUEUE.cmd_queue/USE_RTL_ADDR.addr_q_reg[0].  Did not re-place instance p9_ps_system_i/hp0_interconnect/s01_couplers/auto_us/inst/gen_upsizer.gen_full_upsizer.axi_upsizer_inst/USE_WRITE.write_addr_inst/GEN_CMD_QUEUE.cmd_queue/USE_RTL_ADDR.addr_q_reg[0]
INFO: [Physopt 32-662] Processed net p9_ps_system_i/hp0_interconnect/s01_couplers/auto_us/inst/gen_upsizer.gen_full_upsizer.axi_upsizer_inst/USE_WRITE.write_addr_inst/GEN_CMD_QUEUE.cmd_queue/USE_RTL_ADDR.addr_q_reg[2].  Did not re-place instance p9_ps_system_i/hp0_interconnect/s01_couplers/auto_us/inst/gen_upsizer.gen_full_upsizer.axi_upsizer_inst/USE_WRITE.write_addr_inst/GEN_CMD_QUEUE.cmd_queue/USE_RTL_ADDR.addr_q_reg[2]
INFO: [Physopt 32-662] Processed net p9_ps_system_i/hp0_interconnect/s01_couplers/auto_us/inst/gen_upsizer.gen_full_upsizer.axi_upsizer_inst/USE_WRITE.write_addr_inst/GEN_CMD_QUEUE.cmd_queue/USE_RTL_ADDR.addr_q_reg[3].  Did not re-place instance p9_ps_system_i/hp0_interconnect/s01_couplers/auto_us/inst/gen_upsizer.gen_full_upsizer.axi_upsizer_inst/USE_WRITE.write_addr_inst/GEN_CMD_QUEUE.cmd_queue/USE_RTL_ADDR.addr_q_reg[3]
INFO: [Physopt 32-663] Processed net p9_ps_system_i/hp0_interconnect/xbar/inst/gen_samd.crossbar_samd/gen_slave_slots[2].gen_si_write.wdata_router_w/wrouter_aw_fifo/m_valid_i_reg_0.  Re-placed instance p9_ps_system_i/hp0_interconnect/xbar/inst/gen_samd.crossbar_samd/gen_slave_slots[2].gen_si_write.wdata_router_w/wrouter_aw_fifo/m_valid_i_reg
INFO: [Physopt 32-662] Processed net p9_ps_system_i/hp0_interconnect/s02_couplers/auto_us/inst/gen_upsizer.gen_full_upsizer.axi_upsizer_inst/USE_WRITE.write_addr_inst/GEN_CMD_QUEUE.cmd_queue/WORD_LANE[1].USE_ALWAYS_PACKER.BYTE_LANE[2].USE_RTL_DATA.wstrb_wrap_buffer_q_reg[6][0].  Did not re-place instance p9_ps_system_i/hp0_interconnect/s02_couplers/auto_us/inst/gen_upsizer.gen_full_upsizer.axi_upsizer_inst/USE_WRITE.write_addr_inst/GEN_CMD_QUEUE.cmd_queue/WORD_LANE[1].USE_ALWAYS_PACKER.BYTE_LANE[2].USE_RTL_DATA.USE_REGISTER.M_AXI_WDATA_I[55]_i_1
INFO: [Physopt 32-662] Processed net p9_ps_system_i/hp0_interconnect/s02_couplers/auto_us/inst/gen_upsizer.gen_full_upsizer.axi_upsizer_inst/USE_WRITE.write_addr_inst/GEN_CMD_QUEUE.cmd_queue/WORD_LANE[1].USE_ALWAYS_PACKER.BYTE_LANE[2].USE_RTL_DATA.USE_REGISTER.M_AXI_WDATA_I[55]_i_3_n_0.  Did not re-place instance p9_ps_system_i/hp0_interconnect/s02_couplers/auto_us/inst/gen_upsizer.gen_full_upsizer.axi_upsizer_inst/USE_WRITE.write_addr_inst/GEN_CMD_QUEUE.cmd_queue/WORD_LANE[1].USE_ALWAYS_PACKER.BYTE_LANE[2].USE_RTL_DATA.USE_REGISTER.M_AXI_WDATA_I[55]_i_3
INFO: [Physopt 32-663] Processed net p9_ps_system_i/hp0_interconnect/s02_couplers/auto_us/inst/gen_upsizer.gen_full_upsizer.axi_upsizer_inst/USE_WRITE.gen_non_fifo_w_upsizer.write_data_inst/m_axi_wdata[54].  Re-placed instance p9_ps_system_i/hp0_interconnect/s02_couplers/auto_us/inst/gen_upsizer.gen_full_upsizer.axi_upsizer_inst/USE_WRITE.gen_non_fifo_w_upsizer.write_data_inst/WORD_LANE[1].USE_ALWAYS_PACKER.BYTE_LANE[2].USE_RTL_DATA.USE_REGISTER.M_AXI_WDATA_I_reg[54]
INFO: [Physopt 32-662] Processed net p9_ps_system_i/hp0_interconnect/s01_couplers/auto_us/inst/gen_upsizer.gen_full_upsizer.axi_upsizer_inst/USE_WRITE.gen_non_fifo_w_upsizer.write_data_inst/WORD_LANE[1].USE_ALWAYS_PACKER.BYTE_LANE[0].USE_RTL_DATA.USE_REGISTER.M_AXI_WDATA_I[39]_i_1_n_0.  Did not re-place instance p9_ps_system_i/hp0_interconnect/s01_couplers/auto_us/inst/gen_upsizer.gen_full_upsizer.axi_upsizer_inst/USE_WRITE.gen_non_fifo_w_upsizer.write_data_inst/WORD_LANE[1].USE_ALWAYS_PACKER.BYTE_LANE[0].USE_RTL_DATA.USE_REGISTER.M_AXI_WDATA_I[39]_i_1
INFO: [Physopt 32-662] Processed net p9_ps_system_i/hp0_interconnect/s01_couplers/auto_us/inst/gen_upsizer.gen_full_upsizer.axi_upsizer_inst/USE_WRITE.gen_non_fifo_w_upsizer.write_data_inst/WORD_LANE[1].USE_ALWAYS_PACKER.BYTE_LANE[3].USE_RTL_DATA.USE_REGISTER.M_AXI_WDATA_I[63]_i_4_n_0.  Did not re-place instance p9_ps_system_i/hp0_interconnect/s01_couplers/auto_us/inst/gen_upsizer.gen_full_upsizer.axi_upsizer_inst/USE_WRITE.gen_non_fifo_w_upsizer.write_data_inst/WORD_LANE[1].USE_ALWAYS_PACKER.BYTE_LANE[3].USE_RTL_DATA.USE_REGISTER.M_AXI_WDATA_I[63]_i_4
INFO: [Physopt 32-662] Processed net p9_ps_system_i/axi_dma_0/U0/GEN_SG_ENGINE.I_SG_ENGINE/I_SG_AXI_DATAMOVER/GEN_S2MM_BASIC.I_S2MM_BASIC_WRAPPER/I_WR_DATA_CNTL/sig_push_to_wsc0.  Did not re-place instance p9_ps_system_i/axi_dma_0/U0/GEN_SG_ENGINE.I_SG_ENGINE/I_SG_AXI_DATAMOVER/GEN_S2MM_BASIC.I_S2MM_BASIC_WRAPPER/I_WR_DATA_CNTL/sig_push_to_wsc_i_1
INFO: [Physopt 32-662] Processed net p9_ps_system_i/hp0_interconnect/s01_couplers/auto_us/inst/gen_upsizer.gen_full_upsizer.axi_upsizer_inst/USE_WRITE.gen_non_fifo_w_upsizer.write_data_inst/WORD_LANE[1].USE_ALWAYS_PACKER.BYTE_LANE[3].USE_RTL_DATA.USE_REGISTER.M_AXI_WDATA_I[63]_i_7_n_0.  Did not re-place instance p9_ps_system_i/hp0_interconnect/s01_couplers/auto_us/inst/gen_upsizer.gen_full_upsizer.axi_upsizer_inst/USE_WRITE.gen_non_fifo_w_upsizer.write_data_inst/WORD_LANE[1].USE_ALWAYS_PACKER.BYTE_LANE[3].USE_RTL_DATA.USE_REGISTER.M_AXI_WDATA_I[63]_i_7
INFO: [Physopt 32-663] Processed net p9_ps_system_i/axi_dma_0/U0/GEN_SG_ENGINE.I_SG_ENGINE/I_SG_AXI_DATAMOVER/GEN_S2MM_BASIC.I_S2MM_BASIC_WRAPPER/I_WR_DATA_CNTL/sig_push_to_wsc.  Re-placed instance p9_ps_system_i/axi_dma_0/U0/GEN_SG_ENGINE.I_SG_ENGINE/I_SG_AXI_DATAMOVER/GEN_S2MM_BASIC.I_S2MM_BASIC_WRAPPER/I_WR_DATA_CNTL/sig_push_to_wsc_reg
INFO: [Physopt 32-663] Processed net p9_ps_system_i/axi_dma_0/U0/GEN_SG_ENGINE.I_SG_ENGINE/I_SG_AXI_DATAMOVER/GEN_S2MM_BASIC.I_S2MM_BASIC_WRAPPER/I_WR_DATA_CNTL/in[0].  Re-placed instance p9_ps_system_i/axi_dma_0/U0/GEN_SG_ENGINE.I_SG_ENGINE/I_SG_AXI_DATAMOVER/GEN_S2MM_BASIC.I_S2MM_BASIC_WRAPPER/I_WR_DATA_CNTL/sig_data2wsc_cmd_cmplt_reg
INFO: [Physopt 32-663] Processed net p9_ps_system_i/axi_dma_0/U0/GEN_SG_ENGINE.I_SG_ENGINE/I_SG_AXI_DATAMOVER/GEN_S2MM_BASIC.I_S2MM_BASIC_WRAPPER/I_WR_DATA_CNTL/in[1].  Re-placed instance p9_ps_system_i/axi_dma_0/U0/GEN_SG_ENGINE.I_SG_ENGINE/I_SG_AXI_DATAMOVER/GEN_S2MM_BASIC.I_S2MM_BASIC_WRAPPER/I_WR_DATA_CNTL/sig_data2wsc_last_err_reg
INFO: [Physopt 32-662] Processed net p9_ps_system_i/axi_dma_0/U0/GEN_SG_ENGINE.I_SG_ENGINE/I_SG_AXI_DATAMOVER/GEN_S2MM_BASIC.I_S2MM_BASIC_WRAPPER/I_WR_DATA_CNTL/in[2].  Did not re-place instance p9_ps_system_i/axi_dma_0/U0/GEN_SG_ENGINE.I_SG_ENGINE/I_SG_AXI_DATAMOVER/GEN_S2MM_BASIC.I_S2MM_BASIC_WRAPPER/I_WR_DATA_CNTL/sig_data2wsc_calc_err_reg
INFO: [Physopt 32-662] Processed net p9_ps_system_i/hp0_interconnect/s01_couplers/auto_us/inst/gen_upsizer.gen_full_upsizer.axi_upsizer_inst/USE_WRITE.gen_non_fifo_w_upsizer.write_data_inst/m_axi_wdata[32].  Did not re-place instance p9_ps_system_i/hp0_interconnect/s01_couplers/auto_us/inst/gen_upsizer.gen_full_upsizer.axi_upsizer_inst/USE_WRITE.gen_non_fifo_w_upsizer.write_data_inst/WORD_LANE[1].USE_ALWAYS_PACKER.BYTE_LANE[0].USE_RTL_DATA.USE_REGISTER.M_AXI_WDATA_I_reg[32]
INFO: [Physopt 32-663] Processed net p9_ps_system_i/hp0_interconnect/s01_couplers/auto_us/inst/gen_upsizer.gen_full_upsizer.axi_upsizer_inst/USE_WRITE.gen_non_fifo_w_upsizer.write_data_inst/m_axi_wdata[36].  Re-placed instance p9_ps_system_i/hp0_interconnect/s01_couplers/auto_us/inst/gen_upsizer.gen_full_upsizer.axi_upsizer_inst/USE_WRITE.gen_non_fifo_w_upsizer.write_data_inst/WORD_LANE[1].USE_ALWAYS_PACKER.BYTE_LANE[0].USE_RTL_DATA.USE_REGISTER.M_AXI_WDATA_I_reg[36]
INFO: [Physopt 32-662] Processed net p9_ps_system_i/hp0_interconnect/s01_couplers/auto_us/inst/gen_upsizer.gen_full_upsizer.axi_upsizer_inst/USE_WRITE.gen_non_fifo_w_upsizer.write_data_inst/WORD_LANE[1].USE_ALWAYS_PACKER.BYTE_LANE[3].USE_RTL_DATA.USE_REGISTER.M_AXI_WDATA_I[63]_i_2_n_0.  Did not re-place instance p9_ps_system_i/hp0_interconnect/s01_couplers/auto_us/inst/gen_upsizer.gen_full_upsizer.axi_upsizer_inst/USE_WRITE.gen_non_fifo_w_upsizer.write_data_inst/WORD_LANE[1].USE_ALWAYS_PACKER.BYTE_LANE[3].USE_RTL_DATA.USE_REGISTER.M_AXI_WDATA_I[63]_i_2
INFO: [Physopt 32-662] Processed net p9_ps_system_i/hp0_interconnect/s01_couplers/auto_us/inst/gen_upsizer.gen_full_upsizer.axi_upsizer_inst/USE_WRITE.gen_non_fifo_w_upsizer.write_data_inst/m_axi_wdata[56].  Did not re-place instance p9_ps_system_i/hp0_interconnect/s01_couplers/auto_us/inst/gen_upsizer.gen_full_upsizer.axi_upsizer_inst/USE_WRITE.gen_non_fifo_w_upsizer.write_data_inst/WORD_LANE[1].USE_ALWAYS_PACKER.BYTE_LANE[3].USE_RTL_DATA.USE_REGISTER.M_AXI_WDATA_I_reg[56]
INFO: [Physopt 32-662] Processed net p9_ps_system_i/hp0_interconnect/s01_couplers/auto_us/inst/gen_upsizer.gen_full_upsizer.axi_upsizer_inst/USE_WRITE.gen_non_fifo_w_upsizer.write_data_inst/m_axi_wdata[58].  Did not re-place instance p9_ps_system_i/hp0_interconnect/s01_couplers/auto_us/inst/gen_upsizer.gen_full_upsizer.axi_upsizer_inst/USE_WRITE.gen_non_fifo_w_upsizer.write_data_inst/WORD_LANE[1].USE_ALWAYS_PACKER.BYTE_LANE[3].USE_RTL_DATA.USE_REGISTER.M_AXI_WDATA_I_reg[58]
INFO: [Physopt 32-662] Processed net p9_ps_system_i/hp0_interconnect/s01_couplers/auto_us/inst/gen_upsizer.gen_full_upsizer.axi_upsizer_inst/USE_WRITE.gen_non_fifo_w_upsizer.write_data_inst/WORD_LANE[1].USE_ALWAYS_PACKER.BYTE_LANE[1].USE_RTL_DATA.USE_REGISTER.M_AXI_WDATA_I[47]_i_1_n_0.  Did not re-place instance p9_ps_system_i/hp0_interconnect/s01_couplers/auto_us/inst/gen_upsizer.gen_full_upsizer.axi_upsizer_inst/USE_WRITE.gen_non_fifo_w_upsizer.write_data_inst/WORD_LANE[1].USE_ALWAYS_PACKER.BYTE_LANE[1].USE_RTL_DATA.USE_REGISTER.M_AXI_WDATA_I[47]_i_1
INFO: [Physopt 32-662] Processed net p9_ps_system_i/hp0_interconnect/s01_couplers/auto_us/inst/gen_upsizer.gen_full_upsizer.axi_upsizer_inst/USE_WRITE.gen_non_fifo_w_upsizer.write_data_inst/m_axi_wdata[41].  Did not re-place instance p9_ps_system_i/hp0_interconnect/s01_couplers/auto_us/inst/gen_upsizer.gen_full_upsizer.axi_upsizer_inst/USE_WRITE.gen_non_fifo_w_upsizer.write_data_inst/WORD_LANE[1].USE_ALWAYS_PACKER.BYTE_LANE[1].USE_RTL_DATA.USE_REGISTER.M_AXI_WDATA_I_reg[41]
INFO: [Physopt 32-662] Processed net p9_ps_system_i/hp0_interconnect/s01_couplers/auto_us/inst/gen_upsizer.gen_full_upsizer.axi_upsizer_inst/USE_WRITE.gen_non_fifo_w_upsizer.write_data_inst/m_axi_wdata[43].  Did not re-place instance p9_ps_system_i/hp0_interconnect/s01_couplers/auto_us/inst/gen_upsizer.gen_full_upsizer.axi_upsizer_inst/USE_WRITE.gen_non_fifo_w_upsizer.write_data_inst/WORD_LANE[1].USE_ALWAYS_PACKER.BYTE_LANE[1].USE_RTL_DATA.USE_REGISTER.M_AXI_WDATA_I_reg[43]
INFO: [Physopt 32-663] Processed net p9_ps_system_i/hp0_interconnect/s01_couplers/auto_us/inst/gen_upsizer.gen_full_upsizer.axi_upsizer_inst/USE_WRITE.gen_non_fifo_w_upsizer.write_data_inst/m_axi_wdata[57].  Re-placed instance p9_ps_system_i/hp0_interconnect/s01_couplers/auto_us/inst/gen_upsizer.gen_full_upsizer.axi_upsizer_inst/USE_WRITE.gen_non_fifo_w_upsizer.write_data_inst/WORD_LANE[1].USE_ALWAYS_PACKER.BYTE_LANE[3].USE_RTL_DATA.USE_REGISTER.M_AXI_WDATA_I_reg[57]
INFO: [Physopt 32-663] Processed net p9_ps_system_i/hp0_interconnect/s01_couplers/auto_us/inst/gen_upsizer.gen_full_upsizer.axi_upsizer_inst/USE_WRITE.gen_non_fifo_w_upsizer.write_data_inst/m_axi_wdata[62].  Re-placed instance p9_ps_system_i/hp0_interconnect/s01_couplers/auto_us/inst/gen_upsizer.gen_full_upsizer.axi_upsizer_inst/USE_WRITE.gen_non_fifo_w_upsizer.write_data_inst/WORD_LANE[1].USE_ALWAYS_PACKER.BYTE_LANE[3].USE_RTL_DATA.USE_REGISTER.M_AXI_WDATA_I_reg[62]
INFO: [Physopt 32-662] Processed net p9_ps_system_i/hp0_interconnect/s02_couplers/auto_us/inst/gen_upsizer.gen_full_upsizer.axi_upsizer_inst/USE_WRITE.gen_non_fifo_w_upsizer.write_data_inst/m_axi_wdata[32].  Did not re-place instance p9_ps_system_i/hp0_interconnect/s02_couplers/auto_us/inst/gen_upsizer.gen_full_upsizer.axi_upsizer_inst/USE_WRITE.gen_non_fifo_w_upsizer.write_data_inst/WORD_LANE[1].USE_ALWAYS_PACKER.BYTE_LANE[0].USE_RTL_DATA.USE_REGISTER.M_AXI_WDATA_I_reg[32]
INFO: [Physopt 32-662] Processed net p9_ps_system_i/hp0_interconnect/s02_couplers/auto_us/inst/gen_upsizer.gen_full_upsizer.axi_upsizer_inst/USE_WRITE.gen_non_fifo_w_upsizer.write_data_inst/m_axi_wdata[33].  Did not re-place instance p9_ps_system_i/hp0_interconnect/s02_couplers/auto_us/inst/gen_upsizer.gen_full_upsizer.axi_upsizer_inst/USE_WRITE.gen_non_fifo_w_upsizer.write_data_inst/WORD_LANE[1].USE_ALWAYS_PACKER.BYTE_LANE[0].USE_RTL_DATA.USE_REGISTER.M_AXI_WDATA_I_reg[33]
INFO: [Physopt 32-662] Processed net p9_ps_system_i/hp0_interconnect/s02_couplers/auto_us/inst/gen_upsizer.gen_full_upsizer.axi_upsizer_inst/USE_WRITE.gen_non_fifo_w_upsizer.write_data_inst/m_axi_wdata[36].  Did not re-place instance p9_ps_system_i/hp0_interconnect/s02_couplers/auto_us/inst/gen_upsizer.gen_full_upsizer.axi_upsizer_inst/USE_WRITE.gen_non_fifo_w_upsizer.write_data_inst/WORD_LANE[1].USE_ALWAYS_PACKER.BYTE_LANE[0].USE_RTL_DATA.USE_REGISTER.M_AXI_WDATA_I_reg[36]
INFO: [Physopt 32-663] Processed net p9_ps_system_i/hp0_interconnect/s02_couplers/auto_us/inst/gen_upsizer.gen_full_upsizer.axi_upsizer_inst/USE_WRITE.gen_non_fifo_w_upsizer.write_data_inst/m_axi_wdata[48].  Re-placed instance p9_ps_system_i/hp0_interconnect/s02_couplers/auto_us/inst/gen_upsizer.gen_full_upsizer.axi_upsizer_inst/USE_WRITE.gen_non_fifo_w_upsizer.write_data_inst/WORD_LANE[1].USE_ALWAYS_PACKER.BYTE_LANE[2].USE_RTL_DATA.USE_REGISTER.M_AXI_WDATA_I_reg[48]
INFO: [Physopt 32-663] Processed net p9_ps_system_i/hp0_interconnect/s02_couplers/auto_us/inst/gen_upsizer.gen_full_upsizer.axi_upsizer_inst/USE_WRITE.gen_non_fifo_w_upsizer.write_data_inst/m_axi_wdata[49].  Re-placed instance p9_ps_system_i/hp0_interconnect/s02_couplers/auto_us/inst/gen_upsizer.gen_full_upsizer.axi_upsizer_inst/USE_WRITE.gen_non_fifo_w_upsizer.write_data_inst/WORD_LANE[1].USE_ALWAYS_PACKER.BYTE_LANE[2].USE_RTL_DATA.USE_REGISTER.M_AXI_WDATA_I_reg[49]
INFO: [Physopt 32-663] Processed net p9_ps_system_i/hp0_interconnect/s02_couplers/auto_us/inst/gen_upsizer.gen_full_upsizer.axi_upsizer_inst/USE_WRITE.gen_non_fifo_w_upsizer.write_data_inst/m_axi_wdata[52].  Re-placed instance p9_ps_system_i/hp0_interconnect/s02_couplers/auto_us/inst/gen_upsizer.gen_full_upsizer.axi_upsizer_inst/USE_WRITE.gen_non_fifo_w_upsizer.write_data_inst/WORD_LANE[1].USE_ALWAYS_PACKER.BYTE_LANE[2].USE_RTL_DATA.USE_REGISTER.M_AXI_WDATA_I_reg[52]
INFO: [Physopt 32-663] Processed net p9_ps_system_i/hp0_interconnect/s02_couplers/auto_us/inst/gen_upsizer.gen_full_upsizer.axi_upsizer_inst/USE_WRITE.gen_non_fifo_w_upsizer.write_data_inst/USE_REGISTER.M_AXI_WVALID_q_reg_0.  Re-placed instance p9_ps_system_i/hp0_interconnect/s02_couplers/auto_us/inst/gen_upsizer.gen_full_upsizer.axi_upsizer_inst/USE_WRITE.gen_non_fifo_w_upsizer.write_data_inst/USE_REGISTER.M_AXI_WVALID_q_reg
INFO: [Physopt 32-662] Processed net p9_ps_system_i/hp0_interconnect/s02_couplers/auto_us/inst/gen_upsizer.gen_full_upsizer.axi_upsizer_inst/USE_WRITE.gen_non_fifo_w_upsizer.write_data_inst/m_axi_wdata[39].  Did not re-place instance p9_ps_system_i/hp0_interconnect/s02_couplers/auto_us/inst/gen_upsizer.gen_full_upsizer.axi_upsizer_inst/USE_WRITE.gen_non_fifo_w_upsizer.write_data_inst/WORD_LANE[1].USE_ALWAYS_PACKER.BYTE_LANE[0].USE_RTL_DATA.USE_REGISTER.M_AXI_WDATA_I_reg[39]
INFO: [Physopt 32-662] Processed net p9_ps_system_i/hp0_interconnect/s02_couplers/auto_us/inst/gen_upsizer.gen_full_upsizer.axi_upsizer_inst/USE_WRITE.gen_non_fifo_w_upsizer.write_data_inst/m_axi_wdata[50].  Did not re-place instance p9_ps_system_i/hp0_interconnect/s02_couplers/auto_us/inst/gen_upsizer.gen_full_upsizer.axi_upsizer_inst/USE_WRITE.gen_non_fifo_w_upsizer.write_data_inst/WORD_LANE[1].USE_ALWAYS_PACKER.BYTE_LANE[2].USE_RTL_DATA.USE_REGISTER.M_AXI_WDATA_I_reg[50]
